Freq.	V(h)
1.00000000000000e+000	(-1.86474445298668e+002dB,-3.64059052423138e-001°)
1.00767911871528e+000	(-1.86208658817734e+002dB,-3.66854794784669e-001°)
1.01541720629481e+000	(-1.85942872248148e+002dB,-3.69672008065647e-001°)
1.02321471556749e+000	(-1.85677085588542e+002dB,-3.72510857192118e-001°)
1.03107210283956e+000	(-1.85411298837530e+002dB,-3.75371508357806e-001°)
1.03898982792128e+000	(-1.85145511993700e+002dB,-3.78254129033720e-001°)
1.04696835415386e+000	(-1.84879725055624e+002dB,-3.81158887978156e-001°)
1.05500814843655e+000	(-1.84613938021846e+002dB,-3.84085955246470e-001°)
1.06310968125399e+000	(-1.84348150890892e+002dB,-3.87035502201129e-001°)
1.07127342670371e+000	(-1.84082363661264e+002dB,-3.90007701521813e-001°)
1.07949986252389e+000	(-1.83816576331439e+002dB,-3.93002727215464e-001°)
1.08778947012134e+000	(-1.83550788899874e+002dB,-3.96020754626612e-001°)
1.09614273459964e+000	(-1.83285001365000e+002dB,-3.99061960447591e-001°)
1.10456014478753e+000	(-1.83019213725223e+002dB,-4.02126522728945e-001°)
1.11304219326752e+000	(-1.82753425978926e+002dB,-4.05214620889954e-001°)
1.12158937640474e+000	(-1.82487638124467e+002dB,-4.08326435729086e-001°)
1.13020219437596e+000	(-1.82221850160178e+002dB,-4.11462149434653e-001°)
1.13888115119884e+000	(-1.81956062084366e+002dB,-4.14621945595565e-001°)
1.14762675476150e+000	(-1.81690273895311e+002dB,-4.17806009212021e-001°)
1.15643951685215e+000	(-1.81424485591268e+002dB,-4.21014526706510e-001°)
1.16531995318910e+000	(-1.81158697170462e+002dB,-4.24247685934649e-001°)
1.17426858345093e+000	(-1.80892908631095e+002dB,-4.27505676196289e-001°)
1.18328593130688e+000	(-1.80627119971337e+002dB,-4.30788688246664e-001°)
1.19237252444751e+000	(-1.80361331189334e+002dB,-4.34096914307554e-001°)
1.20152889461558e+000	(-1.80095542283198e+002dB,-4.37430548078580e-001°)
1.21075557763718e+000	(-1.79829753251018e+002dB,-4.40789784748677e-001°)
1.22005311345304e+000	(-1.79563964090849e+002dB,-4.44174821007481e-001°)
1.22942204615020e+000	(-1.79298174800719e+002dB,-4.47585855056940e-001°)
1.23886292399378e+000	(-1.79032385378622e+002dB,-4.51023086622988e-001°)
1.24837629945909e+000	(-1.78766595822525e+002dB,-4.54486716967239e-001°)
1.25796272926398e+000	(-1.78500806130361e+002dB,-4.57976948898872e-001°)
1.26762277440140e+000	(-1.78235016300032e+002dB,-4.61493986786543e-001°)
1.27735700017223e+000	(-1.77969226329408e+002dB,-4.65038036570424e-001°)
1.28716597621835e+000	(-1.77703436216326e+002dB,-4.68609305774307e-001°)
1.29705027655600e+000	(-1.77437645958590e+002dB,-4.72208003517802e-001°)
1.30701047960937e+000	(-1.77171855553968e+002dB,-4.75834340528656e-001°)
1.31704716824441e+000	(-1.76906065000196e+002dB,-4.79488529155202e-001°)
1.32716092980298e+000	(-1.76640274294975e+002dB,-4.83170783378778e-001°)
1.33735235613723e+000	(-1.76374483435969e+002dB,-4.86881318826373e-001°)
1.34762204364417e+000	(-1.76108692420806e+002dB,-4.90620352783276e-001°)
1.35797059330065e+000	(-1.75842901247080e+002dB,-4.94388104205943e-001°)
1.36839861069847e+000	(-1.75577109912345e+002dB,-4.98184793734823e-001°)
1.37890670607985e+000	(-1.75311318414119e+002dB,-5.02010643707378e-001°)
1.38949549437314e+000	(-1.75045526749880e+002dB,-5.05865878171205e-001°)
1.40016559522878e+000	(-1.74779734917070e+002dB,-5.09750722897126e-001°)
1.41091763305560e+000	(-1.74513942913088e+002dB,-5.13665405392634e-001°)
1.42175223705732e+000	(-1.74248150735296e+002dB,-5.17610154915164e-001°)
1.43267004126940e+000	(-1.73982358381013e+002dB,-5.21585202485711e-001°)
1.44367168459614e+000	(-1.73716565847518e+002dB,-5.25590780902341e-001°)
1.45475781084805e+000	(-1.73450773132048e+002dB,-5.29627124754007e-001°)
1.46592906877953e+000	(-1.73184980231797e+002dB,-5.33694470434277e-001°)
1.47718611212688e+000	(-1.72919187143916e+002dB,-5.37793056155337e-001°)
1.48852959964647e+000	(-1.72653393865511e+002dB,-5.41923121962002e-001°)
1.49996019515337e+000	(-1.72387600393645e+002dB,-5.46084909745890e-001°)
1.51147856756015e+000	(-1.72121806725335e+002dB,-5.50278663259652e-001°)
1.52308539091605e+000	(-1.71856012857551e+002dB,-5.54504628131370e-001°)
1.53478134444641e+000	(-1.71590218787218e+002dB,-5.58763051879050e-001°)
1.54656711259242e+000	(-1.71324424511213e+002dB,-5.63054183925175e-001°)
1.55844338505117e+000	(-1.71058630026364e+002dB,-5.67378275611483e-001°)
1.57041085681602e+000	(-1.70792835329451e+002dB,-5.71735580213721e-001°)
1.58247022821728e+000	(-1.70527040417205e+002dB,-5.76126352956694e-001°)
1.59462220496316e+000	(-1.70261245286304e+002dB,-5.80550851029198e-001°)
1.60686749818110e+000	(-1.69995449933377e+002dB,-5.85009333599286e-001°)
1.61920682445937e+000	(-1.69729654355000e+002dB,-5.89502061829545e-001°)
1.63164090588899e+000	(-1.69463858547698e+002dB,-5.94029298892494e-001°)
1.64417047010602e+000	(-1.69198062507940e+002dB,-5.98591309986173e-001°)
1.65679625033413e+000	(-1.68932266232142e+002dB,-6.03188362349712e-001°)
1.66951898542748e+000	(-1.68666469716664e+002dB,-6.07820725279218e-001°)
1.68233941991400e+000	(-1.68400672957810e+002dB,-6.12488670143613e-001°)
1.69525830403892e+000	(-1.68134875951827e+002dB,-6.17192470400667e-001°)
1.70827639380871e+000	(-1.67869078694905e+002dB,-6.21932401613220e-001°)
1.72139445103528e+000	(-1.67603281183174e+002dB,-6.26708741465341e-001°)
1.73461324338061e+000	(-1.67337483412705e+002dB,-6.31521769778876e-001°)
1.74793354440163e+000	(-1.67071685379508e+002dB,-6.36371768529921e-001°)
1.76135613359552e+000	(-1.66805887079531e+002dB,-6.41259021865450e-001°)
1.77488179644529e+000	(-1.66540088508662e+002dB,-6.46183816120238e-001°)
1.78851132446579e+000	(-1.66274289662723e+002dB,-6.51146439833631e-001°)
1.80224551524999e+000	(-1.66008490537471e+002dB,-6.56147183766781e-001°)
1.81608517251569e+000	(-1.65742691128601e+002dB,-6.61186340919721e-001°)
1.83003110615250e+000	(-1.65476891431738e+002dB,-6.66264206548721e-001°)
1.84408413226931e+000	(-1.65211091442442e+002dB,-6.71381078183859e-001°)
1.85824507324197e+000	(-1.64945291156202e+002dB,-6.76537255646476e-001°)
1.87251475776149e+000	(-1.64679490568441e+002dB,-6.81733041067056e-001°)
1.88689402088246e+000	(-1.64413689674508e+002dB,-6.86968738903050e-001°)
1.90138370407198e+000	(-1.64147888469682e+002dB,-6.92244655956878e-001°)
1.91598465525885e+000	(-1.63882086949168e+002dB,-6.97561101394200e-001°)
1.93069772888325e+000	(-1.63616285108100e+002dB,-7.02918386762117e-001°)
1.94552378594667e+000	(-1.63350482941532e+002dB,-7.08316826007709e-001°)
1.96046369406236e+000	(-1.63084680444446e+002dB,-7.13756735496611e-001°)
1.97551832750607e+000	(-1.62818877611746e+002dB,-7.19238434031731e-001°)
1.99068856726721e+000	(-1.62553074438254e+002dB,-7.24762242872260e-001°)
2.00597530110041e+000	(-1.62287270918717e+002dB,-7.30328485752566e-001°)
2.02137942357749e+000	(-1.62021467047798e+002dB,-7.35937488901514e-001°)
2.03690183613977e+000	(-1.61755662820077e+002dB,-7.41589581061768e-001°)
2.05254344715086e+000	(-1.61489858230053e+002dB,-7.47285093509359e-001°)
2.06830517194981e+000	(-1.61224053272138e+002dB,-7.53024360073184e-001°)
2.08418793290465e+000	(-1.60958247940659e+002dB,-7.58807717154995e-001°)
2.10019265946639e+000	(-1.60692442229855e+002dB,-7.64635503749331e-001°)
2.11632028822340e+000	(-1.60426636133877e+002dB,-7.70508061463563e-001°)
2.13257176295623e+000	(-1.60160829646784e+002dB,-7.76425734538282e-001°)
2.14894803469283e+000	(-1.59895022762545e+002dB,-7.82388869867702e-001°)
2.16545006176421e+000	(-1.59629215475034e+002dB,-7.88397817020280e-001°)
2.18207880986052e+000	(-1.59363407778034e+002dB,-7.94452928259490e-001°)
2.19883525208754e+000	(-1.59097599665228e+002dB,-8.00554558564822e-001°)
2.21572036902367e+000	(-1.58831791130204e+002dB,-8.06703065652753e-001°)
2.23273514877728e+000	(-1.58565982166451e+002dB,-8.12898809998216e-001°)
2.24988058704452e+000	(-1.58300172767357e+002dB,-8.19142154855862e-001°)
2.26715768716765e+000	(-1.58034362926208e+002dB,-8.25433466281823e-001°)
2.28456746019368e+000	(-1.57768552636187e+002dB,-8.31773113155393e-001°)
2.30211092493358e+000	(-1.57502741890370e+002dB,-8.38161467201073e-001°)
2.31978910802190e+000	(-1.57236930681729e+002dB,-8.44598903010624e-001°)
2.33760304397682e+000	(-1.56971119003125e+002dB,-8.51085798065509e-001°)
2.35555377526072e+000	(-1.56705306847311e+002dB,-8.57622532759261e-001°)
2.37364235234119e+000	(-1.56439494206926e+002dB,-8.64209490420215e-001°)
2.39186983375244e+000	(-1.56173681074497e+002dB,-8.70847057334383e-001°)
2.41023728615733e+000	(-1.55907867442436e+002dB,-8.77535622768417e-001°)
2.42874578440974e+000	(-1.55642053303037e+002dB,-8.84275578992905e-001°)
2.44739641161746e+000	(-1.55376238648475e+002dB,-8.91067321305772e-001°)
2.46619025920563e+000	(-1.55110423470804e+002dB,-8.97911248055854e-001°)
2.48512842698055e+000	(-1.54844607761958e+002dB,-9.04807760666636e-001°)
2.50421202319406e+000	(-1.54578791513742e+002dB,-9.11757263660359e-001°)
2.52344216460840e+000	(-1.54312974717839e+002dB,-9.18760164682062e-001°)
2.54281997656159e+000	(-1.54047157365801e+002dB,-9.25816874524006e-001°)
2.56234659303320e+000	(-1.53781339449051e+002dB,-9.32927807150230e-001°)
2.58202315671080e+000	(-1.53515520958878e+002dB,-9.40093379721310e-001°)
2.60185081905679e+000	(-1.53249701886439e+002dB,-9.47314012619236e-001°)
2.62183074037579e+000	(-1.52983882222752e+002dB,-9.54590129472754e-001°)
2.64196408988251e+000	(-1.52718061958698e+002dB,-9.61922157182565e-001°)
2.66225204577024e+000	(-1.52452241085018e+002dB,-9.69310525946872e-001°)
2.68269579527971e+000	(-1.52186419592308e+002dB,-9.76755669287285e-001°)
2.70329653476866e+000	(-1.51920597471020e+002dB,-9.84258024074767e-001°)
2.72405546978176e+000	(-1.51654774711458e+002dB,-9.91818030555759e-001°)
2.74497381512123e+000	(-1.51388951303779e+002dB,-9.99436132378558e-001°)
2.76605279491790e+000	(-1.51123127237984e+002dB,-1.00711277662008e+000°)
2.78729364270281e+000	(-1.50857302503922e+002dB,-1.01484841381256e+000°)
2.80869760147948e+000	(-1.50591477091286e+002dB,-1.02264349797068e+000°)
2.83026592379658e+000	(-1.50325650989609e+002dB,-1.03049848661877e+000°)
2.85199987182123e+000	(-1.50059824188262e+002dB,-1.03841384081836e+000°)
2.87390071741292e+000	(-1.49793996676453e+002dB,-1.04639002519587e+000°)
2.89596974219787e+000	(-1.49528168443222e+002dB,-1.05442750797053e+000°)
2.91820823764408e+000	(-1.49262339477441e+002dB,-1.06252676098260e+000°)
2.94061750513687e+000	(-1.48996509767811e+002dB,-1.07068825972175e+000°)
2.96319885605505e+000	(-1.48730679302857e+002dB,-1.07891248335567e+000°)
2.98595361184769e+000	(-1.48464848070927e+002dB,-1.08719991475890e+000°)
3.00888310411140e+000	(-1.48199016060190e+002dB,-1.09555104054207e+000°)
3.03198867466828e+000	(-1.47933183258633e+002dB,-1.10396635108106e+000°)
3.05527167564446e+000	(-1.47667349654056e+002dB,-1.11244634054673e+000°)
3.07873346954917e+000	(-1.47401515234070e+002dB,-1.12099150693463e+000°)
3.10237542935456e+000	(-1.47135679986099e+002dB,-1.12960235209515e+000°)
3.12619893857595e+000	(-1.46869843897367e+002dB,-1.13827938176376e+000°)
3.15020539135287e+000	(-1.46604006954906e+002dB,-1.14702310559165e+000°)
3.17439619253060e+000	(-1.46338169145544e+002dB,-1.15583403717650e+000°)
3.19877275774238e+000	(-1.46072330455909e+002dB,-1.16471269409355e+000°)
3.22333651349230e+000	(-1.45806490872419e+002dB,-1.17365959792690e+000°)
3.24808889723872e+000	(-1.45540650381285e+002dB,-1.18267527430117e+000°)
3.27303135747841e+000	(-1.45274808968504e+002dB,-1.19176025291329e+000°)
3.29816535383133e+000	(-1.45008966619858e+002dB,-1.20091506756462e+000°)
3.32349235712604e+000	(-1.44743123320908e+002dB,-1.21014025619328e+000°)
3.34901384948575e+000	(-1.44477279056992e+002dB,-1.21943636090697e+000°)
3.37473132441508e+000	(-1.44211433813224e+002dB,-1.22880392801553e+000°)
3.40064628688744e+000	(-1.43945587574484e+002dB,-1.23824350806459e+000°)
3.42676025343314e+000	(-1.43679740325424e+002dB,-1.24775565586862e+000°)
3.45307475222807e+000	(-1.43413892050454e+002dB,-1.25734093054491e+000°)
3.47959132318318e+000	(-1.43148042733746e+002dB,-1.26699989554755e+000°)
3.50631151803457e+000	(-1.42882192359227e+002dB,-1.27673311870174e+000°)
3.53323690043432e+000	(-1.42616340910576e+002dB,-1.28654117223830e+000°)
3.56036904604198e+000	(-1.42350488371220e+002dB,-1.29642463282865e+000°)
3.58770954261676e+000	(-1.42084634724329e+002dB,-1.30638408162001e+000°)
3.61525999011047e+000	(-1.41818779952814e+002dB,-1.31642010427073e+000°)
3.64302200076114e+000	(-1.41552924039322e+002dB,-1.32653329098626e+000°)
3.67099719918738e+000	(-1.41287066966233e+002dB,-1.33672423655505e+000°)
3.69918722248341e+000	(-1.41021208715653e+002dB,-1.34699354038498e+000°)
3.72759372031492e+000	(-1.40755349269413e+002dB,-1.35734180654012e+000°)
3.75621835501556e+000	(-1.40489488609064e+002dB,-1.36776964377763e+000°)
3.78506280168425e+000	(-1.40223626715869e+002dB,-1.37827766558509e+000°)
3.81412874828319e+000	(-1.39957763570805e+002dB,-1.38886649021817e+000°)
3.84341789573663e+000	(-1.39691899154554e+002dB,-1.39953674073843e+000°)
3.87293195803044e+000	(-1.39426033447499e+002dB,-1.41028904505182e+000°)
3.90267266231237e+000	(-1.39160166429720e+002dB,-1.42112403594700e+000°)
3.93264174899316e+000	(-1.38894298080990e+002dB,-1.43204235113449e+000°)
3.96284097184836e+000	(-1.38628428380771e+002dB,-1.44304463328578e+000°)
3.99327209812097e+000	(-1.38362557308203e+002dB,-1.45413153007295e+000°)
4.02393690862487e+000	(-1.38096684842110e+002dB,-1.46530369420860e+000°)
4.05483719784902e+000	(-1.37830810960983e+002dB,-1.47656178348609e+000°)
4.08597477406245e+000	(-1.37564935642985e+002dB,-1.48790646082026e+000°)
4.11735145942013e+000	(-1.37299058865939e+002dB,-1.49933839428824e+000°)
4.14896909006956e+000	(-1.37033180607326e+002dB,-1.51085825717079e+000°)
4.18082951625825e+000	(-1.36767300844281e+002dB,-1.52246672799410e+000°)
4.21293460244195e+000	(-1.36501419553584e+002dB,-1.53416449057171e+000°)
4.24528622739383e+000	(-1.36235536711655e+002dB,-1.54595223404682e+000°)
4.27788628431435e+000	(-1.35969652294551e+002dB,-1.55783065293528e+000°)
4.31073668094208e+000	(-1.35703766277960e+002dB,-1.56980044716852e+000°)
4.34383933966536e+000	(-1.35437878637193e+002dB,-1.58186232213716e+000°)
4.37719619763477e+000	(-1.35171989347180e+002dB,-1.59401698873483e+000°)
4.41080920687650e+000	(-1.34906098382462e+002dB,-1.60626516340250e+000°)
4.44468033440657e+000	(-1.34640205717189e+002dB,-1.61860756817310e+000°)
4.47881156234596e+000	(-1.34374311325110e+002dB,-1.63104493071653e+000°)
4.51320488803660e+000	(-1.34108415179569e+002dB,-1.64357798438525e+000°)
4.54786232415823e+000	(-1.33842517253497e+002dB,-1.65620746825984e+000°)
4.58278589884621e+000	(-1.33576617519407e+002dB,-1.66893412719560e+000°)
4.61797765581018e+000	(-1.33310715949387e+002dB,-1.68175871186888e+000°)
4.65343965445367e+000	(-1.33044812515095e+002dB,-1.69468197882434e+000°)
4.68917396999463e+000	(-1.32778907187749e+002dB,-1.70770469052240e+000°)
4.72518269358684e+000	(-1.32512999938122e+002dB,-1.72082761538702e+000°)
4.76146793244229e+000	(-1.32247090736536e+002dB,-1.73405152785420e+000°)
4.79803180995453e+000	(-1.31981179552855e+002dB,-1.74737720842062e+000°)
4.83487646582288e+000	(-1.31715266356475e+002dB,-1.76080544369285e+000°)
4.87200405617766e+000	(-1.31449351116319e+002dB,-1.77433702643702e+000°)
4.90941675370640e+000	(-1.31183433800832e+002dB,-1.78797275562888e+000°)
4.94711674778091e+000	(-1.30917514377968e+002dB,-1.80171343650431e+000°)
4.98510624458549e+000	(-1.30651592815187e+002dB,-1.81555988061035e+000°)
5.02338746724596e+000	(-1.30385669079445e+002dB,-1.82951290585649e+000°)
5.06196265595981e+000	(-1.30119743137188e+002dB,-1.84357333656676e+000°)
5.10083406812726e+000	(-1.29853814954342e+002dB,-1.85774200353205e+000°)
5.14000397848337e+000	(-1.29587884496306e+002dB,-1.87201974406289e+000°)
5.17947467923117e+000	(-1.29321951727944e+002dB,-1.88640740204283e+000°)
5.21924848017580e+000	(-1.29056016613577e+002dB,-1.90090582798228e+000°)
5.25932770885963e+000	(-1.28790079116974e+002dB,-1.91551587907271e+000°)
5.29971471069854e+000	(-1.28524139201342e+002dB,-1.93023841924165e+000°)
5.34041184911913e+000	(-1.28258196829320e+002dB,-1.94507431920779e+000°)
5.38142150569702e+000	(-1.27992251962969e+002dB,-1.96002445653688e+000°)
5.42274608029625e+000	(-1.27726304563763e+002dB,-1.97508971569808e+000°)
5.46438799120969e+000	(-1.27460354592579e+002dB,-1.99027098812083e+000°)
5.50634967530055e+000	(-1.27194402009689e+002dB,-2.00556917225215e+000°)
5.54863358814505e+000	(-1.26928446774750e+002dB,-2.02098517361454e+000°)
5.59124220417603e+000	(-1.26662488846796e+002dB,-2.03651990486458e+000°)
5.63417801682780e+000	(-1.26396528184224e+002dB,-2.05217428585169e+000°)
5.67744353868206e+000	(-1.26130564744791e+002dB,-2.06794924367791e+000°)
5.72104130161492e+000	(-1.25864598485596e+002dB,-2.08384571275782e+000°)
5.76497385694506e+000	(-1.25598629363077e+002dB,-2.09986463487933e+000°)
5.80924377558305e+000	(-1.25332657332995e+002dB,-2.11600695926483e+000°)
5.85385364818177e+000	(-1.25066682350429e+002dB,-2.13227364263307e+000°)
5.89880608528806e+000	(-1.24800704369759e+002dB,-2.14866564926150e+000°)
5.94410371749542e+000	(-1.24534723344662e+002dB,-2.16518395104935e+000°)
5.98974919559803e+000	(-1.24268739228095e+002dB,-2.18182952758118e+000°)
6.03574519074580e+000	(-1.24002751972289e+002dB,-2.19860336619109e+000°)
6.08209439460074e+000	(-1.23736761528732e+002dB,-2.21550646202746e+000°)
6.12879951949444e+000	(-1.23470767848162e+002dB,-2.23253981811853e+000°)
6.17586329858681e+000	(-1.23204770880556e+002dB,-2.24970444543837e+000°)
6.22328848602602e+000	(-1.22938770575113e+002dB,-2.26700136297367e+000°)
6.27107785710967e+000	(-1.22672766880247e+002dB,-2.28443159779100e+000°)
6.31923420844720e+000	(-1.22406759743570e+002dB,-2.30199618510487e+000°)
6.36776035812355e+000	(-1.22140749111887e+002dB,-2.31969616834633e+000°)
6.41665914586406e+000	(-1.21874734931174e+002dB,-2.33753259923245e+000°)
6.46593343320066e+000	(-1.21608717146573e+002dB,-2.35550653783632e+000°)
6.51558610363933e+000	(-1.21342695702373e+002dB,-2.37361905265750e+000°)
6.56562006282883e+000	(-1.21076670542001e+002dB,-2.39187122069383e+000°)
6.61603823873074e+000	(-1.20810641608009e+002dB,-2.41026412751315e+000°)
6.66684358179081e+000	(-1.20544608842054e+002dB,-2.42879886732646e+000°)
6.71803906511160e+000	(-1.20278572184892e+002dB,-2.44747654306123e+000°)
6.76962768462651e+000	(-1.20012531576360e+002dB,-2.46629826643579e+000°)
6.82161245927503e+000	(-1.19746486955361e+002dB,-2.48526515803436e+000°)
6.87399643117946e+000	(-1.19480438259850e+002dB,-2.50437834738272e+000°)
6.92678266582292e+000	(-1.19214385426821e+002dB,-2.52363897302494e+000°)
6.97997425222874e+000	(-1.18948328392292e+002dB,-2.54304818260051e+000°)
7.03357430314123e+000	(-1.18682267091285e+002dB,-2.56260713292257e+000°)
7.08758595520782e+000	(-1.18416201457817e+002dB,-2.58231699005674e+000°)
7.14201236916264e+000	(-1.18150131424880e+002dB,-2.60217892940076e+000°)
7.19685673001146e+000	(-1.17884056924426e+002dB,-2.62219413576520e+000°)
7.25212224721811e+000	(-1.17617977887352e+002dB,-2.64236380345457e+000°)
7.30781215489224e+000	(-1.17351894243482e+002dB,-2.66268913634963e+000°)
7.36392971197865e+000	(-1.17085805921550e+002dB,-2.68317134799040e+000°)
7.42047820244794e+000	(-1.16819712849186e+002dB,-2.70381166166003e+000°)
7.47746093548871e+000	(-1.16553614952895e+002dB,-2.72461131046959e+000°)
7.53488124570123e+000	(-1.16287512158040e+002dB,-2.74557153744365e+000°)
7.59274249329253e+000	(-1.16021404388827e+002dB,-2.76669359560689e+000°)
7.65104806427310e+000	(-1.15755291568283e+002dB,-2.78797874807162e+000°)
7.70980137065500e+000	(-1.15489173618242e+002dB,-2.80942826812597e+000°)
7.76900585065151e+000	(-1.15223050459321e+002dB,-2.83104343932335e+000°)
7.82866496887840e+000	(-1.14956922010907e+002dB,-2.85282555557274e+000°)
