time	V(h)	V(vin)
0.000000000000000e+000	4.728334e-005	0.000000e+000
6.629960526174050e-010	7.037707e-004	6.629960e-004
1.325992105234810e-009	1.349122e-003	1.325992e-003
1.988988157852215e-009	1.983339e-003	1.988988e-003
2.651984210469620e-009	2.606419e-003	2.651984e-003
3.314980263087025e-009	3.218365e-003	3.314980e-003
3.977976315704430e-009	3.819174e-003	3.977976e-003
4.640972368321833e-009	4.408848e-003	4.640972e-003
8.685774721097253e-009	7.852547e-003	8.685775e-003
1.279682787050309e-008	1.105832e-002	1.279683e-002
1.751874386140157e-008	1.436525e-002	1.751874e-002
2.212666673758297e-008	1.718309e-002	2.212667e-002
2.941778863753310e-008	2.086248e-002	2.941779e-002
3.910633709302134e-008	2.448454e-002	3.910634e-002
5.158214277575956e-008	2.712753e-002	5.158214e-002
6.699213005409609e-008	2.745647e-002	6.699213e-002
8.722716759085282e-008	2.378251e-002	8.722717e-002
1.097724675380373e-007	1.541169e-002	1.097725e-001
1.349058753207273e-007	2.458064e-003	1.349059e-001
1.568991337710082e-007	-1.056650e-002	1.568991e-001
1.746440894531987e-007	-2.134180e-002	1.746441e-001
1.931124878583132e-007	-3.197053e-002	1.931125e-001
2.109337001159832e-007	-4.092370e-002	2.109337e-001
2.379796305999854e-007	-5.150177e-002	2.379796e-001
2.697139865682032e-007	-5.948356e-002	2.697140e-001
3.033268233882867e-007	-6.291936e-002	3.033268e-001
3.370219102339671e-007	-6.192351e-002	3.370219e-001
3.791516861854223e-007	-5.661819e-002	3.791517e-001
4.295426540931789e-007	-4.726150e-002	4.295427e-001
4.825893187057860e-007	-3.479356e-002	4.825893e-001
5.498029979743479e-007	-1.383082e-002	5.498030e-001
6.258700544746113e-007	2.097374e-002	6.258700e-001
7.261288052340209e-007	8.688331e-002	7.261288e-001
8.182218430355959e-007	1.653165e-001	8.182219e-001
8.741124532360103e-007	2.209168e-001	8.741124e-001
9.164314323254933e-007	2.682740e-001	9.164314e-001
9.283697991361371e-007	2.820637e-001	9.283698e-001
9.403081659467809e-007	2.961023e-001	9.403082e-001
9.522465327574247e-007	3.103898e-001	9.522465e-001
9.641848995680686e-007	3.249262e-001	9.641849e-001
9.761232663787124e-007	3.397115e-001	9.761233e-001
9.880616331893561e-007	3.547456e-001	9.880616e-001
1.000000000000000e-006	3.700287e-001	1.000000e+000
1.007303077095659e-006	3.730465e-001	1.000000e+000
1.017040513223204e-006	3.788266e-001	1.000000e+000
1.032063049337809e-006	3.909335e-001	1.000000e+000
1.049081190793552e-006	4.089389e-001	1.000000e+000
1.068006046896321e-006	4.340737e-001	1.000000e+000
1.089331035067780e-006	4.680974e-001	1.000000e+000
1.116148198847732e-006	5.169808e-001	1.000000e+000
1.137816085574999e-006	5.599269e-001	1.000000e+000
1.151703653017296e-006	5.887457e-001	1.000000e+000
1.164193318165037e-006	6.151117e-001	1.000000e+000
1.176259146498540e-006	6.406234e-001	1.000000e+000
1.188767857238461e-006	6.668710e-001	1.000000e+000
1.202747379348445e-006	6.957516e-001	1.000000e+000
1.216668958783458e-006	7.238411e-001	1.000000e+000
1.231962185234691e-006	7.536770e-001	1.000000e+000
1.252044519721470e-006	7.910511e-001	1.000000e+000
1.280122599963054e-006	8.398097e-001	1.000000e+000
1.328971794007185e-006	9.186136e-001	1.000000e+000
1.356940902904387e-006	9.609543e-001	1.000000e+000
1.378953486310583e-006	9.927465e-001	1.000000e+000
1.401329465090749e-006	1.024347e+000	1.000000e+000
1.423305324808645e-006	1.054921e+000	1.000000e+000
1.447797455961541e-006	1.088519e+000	1.000000e+000
1.474984847905864e-006	1.124879e+000	1.000000e+000
1.526779189228618e-006	1.190727e+000	1.000000e+000
1.583676159551168e-006	1.255866e+000	1.000000e+000
1.655115530862648e-006	1.323977e+000	1.000000e+000
1.725376668791194e-006	1.372648e+000	1.000000e+000
1.831215556461266e-006	1.412449e+000	1.000000e+000
1.961946286911428e-006	1.417094e+000	1.000000e+000
2.094071072418102e-006	1.376180e+000	1.000000e+000
2.209518729317426e-006	1.305082e+000	1.000000e+000
2.324710195031182e-006	1.207724e+000	1.000000e+000
2.449551160292553e-006	1.085336e+000	1.000000e+000
2.562969372529560e-006	9.682562e-001	1.000000e+000
2.668561451980471e-006	8.614807e-001	1.000000e+000
2.774379612640795e-006	7.638354e-001	1.000000e+000
2.890034365053487e-006	6.733561e-001	1.000000e+000
2.997318151309930e-006	6.091710e-001	1.000000e+000
3.112413206291171e-006	5.655721e-001	1.000000e+000
3.242119800553925e-006	5.488206e-001	1.000000e+000
3.406053462147711e-006	5.712751e-001	1.000000e+000
3.593008744969578e-006	6.403828e-001	1.000000e+000
3.736001198991616e-006	7.167168e-001	1.000000e+000
3.844902273334210e-006	7.839738e-001	1.000000e+000
3.954443045926169e-006	8.529535e-001	1.000000e+000
4.064711120428544e-006	9.184127e-001	1.000000e+000
4.177284439524968e-006	9.769912e-001	1.000000e+000
4.290596637463428e-006	1.023172e+000	1.000000e+000
4.436137814466872e-006	1.059976e+000	1.000000e+000
4.618864503922064e-006	1.072742e+000	1.000000e+000
4.806134902222351e-006	1.051139e+000	1.000000e+000
4.982307731953707e-006	1.004780e+000	1.000000e+000
5.111240022519404e-006	9.593474e-001	1.000000e+000
5.219752727248479e-006	9.171484e-001	1.000000e+000
5.338701409641676e-006	8.713042e-001	1.000000e+000
5.450882509543901e-006	8.315899e-001	1.000000e+000
5.564723244476971e-006	7.973844e-001	1.000000e+000
5.678937597984512e-006	7.721102e-001	1.000000e+000
5.843596990680458e-006	7.527689e-001	1.000000e+000
6.037819892925725e-006	7.525522e-001	1.000000e+000
6.228323392881797e-006	7.728313e-001	1.000000e+000
6.370325288664066e-006	7.988877e-001	1.000000e+000
6.482803366649932e-006	8.242038e-001	1.000000e+000
6.591965149744104e-006	8.501364e-001	1.000000e+000
6.702630265696437e-006	8.756300e-001	1.000000e+000
6.819401280649991e-006	8.999099e-001	1.000000e+000
6.932212307356280e-006	9.192249e-001	1.000000e+000
7.058815656532571e-006	9.342160e-001	1.000000e+000
7.229852670245893e-006	9.427847e-001	1.000000e+000
7.443010508423949e-006	9.383733e-001	1.000000e+000
7.599316957751329e-006	9.255683e-001	1.000000e+000
7.726167987351438e-006	9.098233e-001	1.000000e+000
7.836726200582195e-006	8.938900e-001	1.000000e+000
7.947176246403341e-006	8.773609e-001	1.000000e+000
8.059062759469927e-006	8.612776e-001	1.000000e+000
8.181724057237163e-006	8.455146e-001	1.000000e+000
8.294878851960122e-006	8.337384e-001	1.000000e+000
8.428606446823353e-006	8.243897e-001	1.000000e+000
8.601668378720713e-006	8.198121e-001	1.000000e+000
8.827319013441542e-006	8.237920e-001	1.000000e+000
8.988831111982688e-006	8.324977e-001	1.000000e+000
9.111178580074859e-006	8.419912e-001	1.000000e+000
9.219319889962348e-006	8.514017e-001	1.000000e+000
9.349287265949102e-006	8.627557e-001	1.000000e+000
9.468357589189177e-006	8.723130e-001	1.000000e+000
9.598941026255946e-006	8.810626e-001	1.000000e+000
9.724582772333604e-006	8.870041e-001	1.000000e+000
9.891843033507531e-006	8.906281e-001	1.000000e+000
1.009257919898482e-005	8.896443e-001	1.000000e+000
1.024955665554297e-005	8.851525e-001	1.000000e+000
1.038062755289461e-005	8.791649e-001	1.000000e+000
1.049912367457883e-005	8.726860e-001	1.000000e+000
1.063397353613936e-005	8.649498e-001	1.000000e+000
1.078052821565236e-005	8.569790e-001	1.000000e+000
1.092715645313112e-005	8.502232e-001	1.000000e+000
1.107938732516562e-005	8.451719e-001	1.000000e+000
1.124174578836400e-005	8.424652e-001	1.000000e+000
1.144121329885682e-005	8.425058e-001	1.000000e+000
1.160146558113813e-005	8.448628e-001	1.000000e+000
1.174251568080506e-005	8.484297e-001	1.000000e+000
1.189458905829420e-005	8.530582e-001	1.000000e+000
1.207007358143292e-005	8.584440e-001	1.000000e+000
1.223976028210144e-005	8.628975e-001	1.000000e+000
1.241886369774827e-005	8.660876e-001	1.000000e+000
1.260338931255886e-005	8.672869e-001	1.000000e+000
1.282545186561645e-005	8.661786e-001	1.000000e+000
1.300332280870818e-005	8.636044e-001	1.000000e+000
1.317389590615826e-005	8.600770e-001	1.000000e+000
1.336062293244491e-005	8.558803e-001	1.000000e+000
1.356554934023512e-005	8.517063e-001	1.000000e+000
1.376942489679538e-005	8.486829e-001	1.000000e+000
1.398935814377050e-005	8.471568e-001	1.000000e+000
1.424303386103575e-005	8.473713e-001	1.000000e+000
1.443691584367813e-005	8.486941e-001	1.000000e+000
1.463470655710612e-005	8.506430e-001	1.000000e+000
1.489023341514184e-005	8.530377e-001	1.000000e+000
1.512083204782948e-005	8.543908e-001	1.000000e+000
1.538543914915453e-005	8.545032e-001	1.000000e+000
1.566964276203246e-005	8.531235e-001	1.000000e+000
1.589368214285227e-005	8.512094e-001	1.000000e+000
1.613282041861688e-005	8.489040e-001	1.000000e+000
1.642777312714531e-005	8.465165e-001	1.000000e+000
1.670583630166572e-005	8.452267e-001	1.000000e+000
1.704497716295639e-005	8.449476e-001	1.000000e+000
1.734361050018106e-005	8.454494e-001	1.000000e+000
1.764385324935967e-005	8.460652e-001	1.000000e+000
1.799155523593249e-005	8.461875e-001	1.000000e+000
1.833201924191923e-005	8.453900e-001	1.000000e+000
1.880043853929653e-005	8.433576e-001	1.000000e+000
1.923591408492387e-005	8.414326e-001	1.000000e+000
1.963941823898621e-005	8.402537e-001	1.000000e+000
2.007818640651138e-005	8.397240e-001	1.000000e+000
2.045916726332523e-005	8.394957e-001	1.000000e+000
2.090117369577936e-005	8.389321e-001	1.000000e+000
2.138407511160841e-005	8.377327e-001	1.000000e+000
2.193721271407325e-005	8.360345e-001	1.000000e+000
2.255227469047222e-005	8.344162e-001	1.000000e+000
2.312097140954181e-005	8.333580e-001	1.000000e+000
2.373047778005487e-005	8.323157e-001	1.000000e+000
2.444784883356953e-005	8.307422e-001	1.000000e+000
2.516588676963225e-005	8.289494e-001	1.000000e+000
2.593331493611657e-005	8.272065e-001	1.000000e+000
2.679206284085775e-005	8.254758e-001	1.000000e+000
2.765974208393979e-005	8.236190e-001	1.000000e+000
2.872020434837137e-005	8.211908e-001	1.000000e+000
2.981642545582840e-005	8.187881e-001	1.000000e+000
3.108943017215948e-005	8.160658e-001	1.000000e+000
3.271198573633377e-005	8.124920e-001	1.000000e+000
3.435988180040177e-005	8.088892e-001	1.000000e+000
3.634289264617560e-005	8.045967e-001	1.000000e+000
3.915456415269913e-005	7.984693e-001	1.000000e+000
4.198803532439911e-005	7.923286e-001	1.000000e+000
4.540424727038814e-005	7.849401e-001	1.000000e+000
4.946848572029753e-005	7.761694e-001	1.000000e+000
6.336124710680395e-005	7.464434e-001	1.000000e+000
8.850227556549343e-005	6.935502e-001	1.000000e+000
1.093080724987532e-004	6.507402e-001	1.000000e+000
1.399888376667088e-004	5.890765e-001	1.000000e+000
1.741685251667088e-004	5.224031e-001	1.000000e+000
2.083482126667088e-004	4.580464e-001	1.000000e+000
2.425279001667088e-004	3.961358e-001	1.000000e+000
2.767075876667088e-004	3.367292e-001	1.000000e+000
3.108872751667088e-004	2.798723e-001	1.000000e+000
3.450669626667088e-004	2.255984e-001	1.000000e+000
3.792466501667089e-004	1.739300e-001	1.000000e+000
4.134263376667089e-004	1.248787e-001	1.000000e+000
4.476060251667089e-004	7.844673e-002	1.000000e+000
4.817857126667089e-004	3.462696e-002	1.000000e+000
5.159654001667090e-004	-6.595854e-003	1.000000e+000
5.501450876667090e-004	-4.524507e-002	1.000000e+000
5.843247751667090e-004	-8.135077e-002	1.000000e+000
6.185044626667091e-004	-1.149499e-001	1.000000e+000
6.526841501667091e-004	-1.460850e-001	1.000000e+000
6.868638376667091e-004	-1.748043e-001	1.000000e+000
7.210435251667092e-004	-2.011605e-001	1.000000e+000
7.552232126667092e-004	-2.252109e-001	1.000000e+000
7.894029001667092e-004	-2.470163e-001	1.000000e+000
8.235825876667092e-004	-2.666412e-001	1.000000e+000
8.577622751667093e-004	-2.841525e-001	1.000000e+000
8.919419626667093e-004	-2.996199e-001	1.000000e+000
9.261216501667093e-004	-3.131151e-001	1.000000e+000
9.603013376667094e-004	-3.247114e-001	1.000000e+000
9.944810251667094e-004	-3.344834e-001	1.000000e+000
1.028660712666709e-003	-3.425067e-001	1.000000e+000
1.062840400166709e-003	-3.488575e-001	1.000000e+000
1.097020087666709e-003	-3.536125e-001	1.000000e+000
1.131199775166709e-003	-3.568483e-001	1.000000e+000
1.165379462666709e-003	-3.586416e-001	1.000000e+000
1.199559150166709e-003	-3.590683e-001	1.000000e+000
1.233738837666709e-003	-3.582041e-001	1.000000e+000
1.267918525166709e-003	-3.561236e-001	1.000000e+000
1.302098212666709e-003	-3.529004e-001	1.000000e+000
1.336277900166709e-003	-3.486072e-001	1.000000e+000
1.370457587666709e-003	-3.433151e-001	1.000000e+000
1.404637275166709e-003	-3.370939e-001	1.000000e+000
1.438816962666708e-003	-3.300118e-001	1.000000e+000
1.472996650166708e-003	-3.221353e-001	1.000000e+000
1.507176337666708e-003	-3.135292e-001	1.000000e+000
1.541356025166708e-003	-3.042564e-001	1.000000e+000
1.575535712666708e-003	-2.943778e-001	1.000000e+000
1.609715400166708e-003	-2.839526e-001	1.000000e+000
1.643895087666708e-003	-2.730377e-001	1.000000e+000
1.678074775166708e-003	-2.616883e-001	1.000000e+000
1.746434150166708e-003	-2.378948e-001	1.000000e+000
1.814793525166708e-003	-2.129703e-001	1.000000e+000
1.883152900166707e-003	-1.872792e-001	1.000000e+000
1.951512275166707e-003	-1.611528e-001	1.000000e+000
2.019871650166707e-003	-1.348894e-001	1.000000e+000
2.088231025166708e-003	-1.087557e-001	1.000000e+000
2.190770087666708e-003	-7.030672e-002	1.000000e+000
2.259129462666708e-003	-4.546674e-002	1.000000e+000
2.293309150166708e-003	-3.334935e-002	1.000000e+000
2.327488837666709e-003	-2.145861e-002	1.000000e+000
2.361668525166709e-003	-9.811529e-003	1.000000e+000
2.395848212666709e-003	1.576625e-003	1.000000e+000
2.430027900166709e-003	1.269171e-002	1.000000e+000
2.464207587666709e-003	2.352121e-002	1.000000e+000
2.498387275166709e-003	3.405362e-002	1.000000e+000
2.532566962666709e-003	4.427894e-002	1.000000e+000
2.566746650166710e-003	5.418807e-002	1.000000e+000
2.600926337666710e-003	6.377333e-002	1.000000e+000
2.635106025166710e-003	7.302780e-002	1.000000e+000
2.669285712666710e-003	8.194590e-002	1.000000e+000
2.703465400166710e-003	9.052269e-002	1.000000e+000
2.737645087666710e-003	9.875446e-002	1.000000e+000
2.771824775166710e-003	1.066381e-001	1.000000e+000
2.806004462666711e-003	1.141715e-001	1.000000e+000
2.840184150166711e-003	1.213531e-001	1.000000e+000
2.874363837666711e-003	1.281824e-001	1.000000e+000
2.908543525166711e-003	1.346656e-001	1.000000e+000
2.940233490883854e-003	1.403565e-001	1.000000e+000
2.974413178383855e-003	1.461501e-001	1.000000e+000
3.008592865883855e-003	1.516013e-001	1.000000e+000
3.042772553383855e-003	1.567057e-001	1.000000e+000
3.076952240883855e-003	1.614663e-001	1.000000e+000
3.111131928383855e-003	1.658860e-001	1.000000e+000
3.145311615883855e-003	1.699687e-001	1.000000e+000
3.179491303383855e-003	1.737182e-001	1.000000e+000
3.213670990883856e-003	1.771388e-001	1.000000e+000
3.247850678383856e-003	1.802353e-001	1.000000e+000
3.316210053383856e-003	1.854758e-001	1.000000e+000
3.384569428383856e-003	1.894822e-001	1.000000e+000
3.452928803383857e-003	1.923007e-001	1.000000e+000
3.521288178383857e-003	1.939803e-001	1.000000e+000
3.589647553383857e-003	1.945721e-001	1.000000e+000
3.658006928383857e-003	1.941289e-001	1.000000e+000
3.760545990883858e-003	1.916421e-001	1.000000e+000
3.863085053383858e-003	1.871339e-001	1.000000e+000
3.965624115883858e-003	1.807915e-001	1.000000e+000
4.068163178383859e-003	1.728016e-001	1.000000e+000
4.141405365883859e-003	1.660289e-001	1.000000e+000
4.214647553383859e-003	1.587372e-001	1.000000e+000
4.287889740883859e-003	1.509263e-001	1.000000e+000
4.361131928383860e-003	1.425964e-001	1.000000e+000
4.434374115883860e-003	1.337473e-001	1.000000e+000
4.507616303383860e-003	1.243791e-001	1.000000e+000
4.580858490883861e-003	1.144919e-001	1.000000e+000
4.610155365883861e-003	1.105019e-001	1.000000e+000
4.639452240883861e-003	1.064763e-001	1.000000e+000
4.668749115883861e-003	1.024150e-001	1.000000e+000
4.698045990883861e-003	9.831807e-002	1.000000e+000
4.727342865883861e-003	9.418550e-002	1.000000e+000
4.756639740883861e-003	9.001730e-002	1.000000e+000
4.785936615883862e-003	8.581346e-002	1.000000e+000
4.812674072122344e-003	8.196592e-002	1.000000e+000
4.832470391138280e-003	7.910568e-002	1.000000e+000
4.844410069770345e-003	7.737666e-002	1.000000e+000
4.851391534731056e-003	7.636254e-002	1.000000e+000
4.857106291248111e-003	7.553305e-002	1.000000e+000
4.858730408962834e-003	7.529590e-002	1.000000e+000
4.860198732954815e-003	7.508878e-002	1.000000e+000
4.861020167778625e-003	7.496731e-002	1.000000e+000
4.862767019188257e-003	7.471018e-002	1.000000e+000
4.864393601966672e-003	7.447582e-002	1.000000e+000
4.866078050853243e-003	7.422923e-002	1.000000e+000
4.867024845081510e-003	7.409349e-002	1.000000e+000
4.867943882336444e-003	7.395879e-002	1.000000e+000
4.868875907875837e-003	7.382209e-002	1.000000e+000
4.869895627209520e-003	7.367481e-002	1.000000e+000
4.870822497513219e-003	7.354049e-002	1.000000e+000
4.871890759468731e-003	7.338409e-002	1.000000e+000
4.872802755183368e-003	7.325123e-002	1.000000e+000
4.873898243043980e-003	7.309254e-002	1.000000e+000
4.874914262198532e-003	7.294457e-002	1.000000e+000
4.877208133590604e-003	7.261050e-002	1.000000e+000
4.878126979471046e-003	7.247690e-002	1.000000e+000
4.879142267359759e-003	7.232871e-002	1.000000e+000
4.880506890412916e-003	7.213008e-002	1.000000e+000
4.882321399176557e-003	7.186585e-002	1.000000e+000
4.885548255878450e-003	7.139573e-002	1.000000e+000
4.942203304224065e-003	6.306858e-002	1.000000e+000
4.998858352569681e-003	5.477788e-002	1.000000e+000
5.055513400915297e-003	4.652361e-002	1.000000e+000
5.112168449260913e-003	3.830577e-002	1.000000e+000
5.168823497606528e-003	3.012437e-002	1.000000e+000
5.225478545952144e-003	2.197941e-002	1.000000e+000
5.282133594297760e-003	1.387089e-002	1.000000e+000
5.350492969297760e-003	4.300725e-003	1.000000e+000
5.384672656797760e-003	-4.137467e-004	1.000000e+000
5.418852344297761e-003	-5.075668e-003	1.000000e+000
5.487211719297761e-003	-1.422601e-002	1.000000e+000
5.555571094297761e-003	-2.311960e-002	1.000000e+000
5.658110156797762e-003	-3.591540e-002	1.000000e+000
5.760649219297762e-003	-4.797738e-002	1.000000e+000
5.863188281797762e-003	-5.922328e-002	1.000000e+000
5.965727344297763e-003	-6.957994e-002	1.000000e+000
6.068266406797763e-003	-7.898362e-002	1.000000e+000
6.170805469297764e-003	-8.738028e-002	1.000000e+000
6.268461719297764e-003	-9.442203e-002	1.000000e+000
6.366117969297765e-003	-1.004512e-001	1.000000e+000
6.463774219297765e-003	-1.054679e-001	1.000000e+000
6.561430469297766e-003	-1.094720e-001	1.000000e+000
6.659086719297765e-003	-1.124636e-001	1.000000e+000
6.756742969297766e-003	-1.144427e-001	1.000000e+000
6.854399219297766e-003	-1.154092e-001	1.000000e+000
6.956938281797767e-003	-1.152283e-001	1.000000e+000
7.059477344297767e-003	-1.141079e-001	1.000000e+000
7.162016406797768e-003	-1.120478e-001	1.000000e+000
7.264555469297768e-003	-1.090481e-001	1.000000e+000
7.367094531797768e-003	-1.051089e-001	1.000000e+000
7.469633594297769e-003	-1.002300e-001	1.000000e+000
7.572172656797769e-003	-9.441154e-002	1.000000e+000
7.660063281797770e-003	-8.884123e-002	1.000000e+000
7.747953906797770e-003	-8.292477e-002	1.000000e+000
7.835844531797771e-003	-7.666213e-002	1.000000e+000
7.923735156797770e-003	-7.005333e-002	1.000000e+000
8.011625781797772e-003	-6.309837e-002	1.000000e+000
8.099516406797772e-003	-5.579725e-002	1.000000e+000
8.187407031797772e-003	-4.814995e-002	1.000000e+000
8.246000781797772e-003	-4.301273e-002	1.000000e+000
8.304594531797773e-003	-3.786394e-002	1.000000e+000
8.363188281797773e-003	-3.270359e-002	1.000000e+000
8.421782031797772e-003	-2.753168e-002	1.000000e+000
8.480375781797772e-003	-2.234821e-002	1.000000e+000
8.538969531797773e-003	-1.715317e-002	1.000000e+000
8.597563281797773e-003	-1.194657e-002	1.000000e+000
8.700102344297774e-003	-3.017862e-003	1.000000e+000
8.734282031797774e-003	-8.479587e-005	1.000000e+000
