time	V(h)	V(vin)
0.000000000000000e+000	5.131318e-005	0.000000e+000
1.462857137011855e-009	6.408567e-005	1.308856e-005
2.925714274023709e-009	7.641146e-005	2.617711e-005
4.388571411035564e-009	8.829054e-005	3.926567e-005
5.851428548047419e-009	9.972291e-005	5.235423e-005
7.314285685059273e-009	1.107086e-004	6.544278e-005
8.777142822071128e-009	1.212475e-004	7.853134e-005
1.023999995908298e-008	1.313398e-004	9.161990e-005
1.848026468274358e-008	1.826299e-004	1.653477e-004
2.900738495471365e-008	2.331532e-004	2.595365e-004
4.329158490926277e-008	2.756077e-004	3.873409e-004
6.381403178716227e-008	2.891203e-004	5.709605e-004
9.590947214856262e-008	2.358877e-004	8.581265e-004
1.191073786665467e-007	1.525957e-004	1.065684e-003
1.391953877752043e-007	5.398371e-005	1.245416e-003
1.597372894675607e-007	-5.679442e-005	1.429210e-003
1.865254913785923e-007	-1.975531e-004	1.668890e-003
2.155255383555901e-007	-3.281663e-004	1.928361e-003
2.492830935257047e-007	-4.380491e-004	2.230398e-003
2.841742587436857e-007	-4.980380e-004	2.542577e-003
3.261183954045796e-007	-5.086562e-004	2.917861e-003
3.674502940071788e-007	-4.724239e-004	3.287666e-003
4.218782920150602e-007	-3.825265e-004	3.774644e-003
5.031455463659319e-007	-1.907185e-004	4.501757e-003
6.098422483453142e-007	2.042508e-004	5.456388e-003
7.424636670558856e-007	9.925698e-004	6.642964e-003
8.862840609976580e-007	2.253243e-003	7.929727e-003
1.099384101133162e-006	4.666943e-003	9.836312e-003
1.315582359052472e-006	7.492789e-003	1.177058e-002
1.558099499678542e-006	1.077437e-002	1.394026e-002
1.834115764214045e-006	1.415372e-002	1.640957e-002
2.120417135087497e-006	1.693536e-002	1.897078e-002
2.401687296018061e-006	1.887773e-002	2.148686e-002
2.715747707011416e-006	2.043561e-002	2.429610e-002
3.051232336521805e-006	2.202059e-002	2.729676e-002
3.441715509172656e-006	2.439789e-002	3.078904e-002
3.821002548896263e-006	2.749331e-002	3.418083e-002
4.259001626174611e-006	3.166511e-002	3.809715e-002
4.737907422765256e-006	3.612712e-002	4.237857e-002
5.179262693245833e-006	3.964822e-002	4.632360e-002
5.713405551036996e-006	4.330646e-002	5.109704e-002
6.263517585682034e-006	4.710825e-002	5.601196e-002
6.796763228121244e-006	5.126427e-002	6.077490e-002
7.414052538697114e-006	5.643798e-002	6.628679e-002
8.024111030927465e-006	6.135818e-002	7.173212e-002
8.695837256245927e-006	6.637000e-002	7.772541e-002
9.412195753605465e-006	7.166562e-002	8.411382e-002
1.019992289020166e-005	7.777296e-002	9.113469e-002
1.107892152465871e-005	8.466445e-002	9.896369e-002
1.207568203586657e-005	9.222792e-002	1.078341e-001
1.307568203586657e-005	9.974007e-002	1.167248e-001
1.407568203586657e-005	1.073796e-001	1.256061e-001
1.507568203586658e-005	1.149828e-001	1.344773e-001
1.607568203586657e-005	1.224457e-001	1.433378e-001
1.707568203586657e-005	1.299192e-001	1.521868e-001
1.807568203586658e-005	1.374318e-001	1.610236e-001
1.907568203586658e-005	1.448630e-001	1.698476e-001
2.007568203586658e-005	1.522276e-001	1.786579e-001
2.107568203586658e-005	1.596084e-001	1.874540e-001
2.207568203586658e-005	1.669678e-001	1.962350e-001
2.307568203586658e-005	1.742556e-001	2.050003e-001
2.507568203586658e-005	1.887643e-001	2.224810e-001
2.707568203586658e-005	2.031226e-001	2.398905e-001
2.907568203586658e-005	2.173554e-001	2.572232e-001
3.693282489300942e-005	2.723224e-001	3.252357e-001
4.478996775015226e-005	3.241683e-001	3.908659e-001
5.264711060729510e-005	3.728929e-001	4.541137e-001
6.050425346443794e-005	4.184962e-001	5.149791e-001
6.836139632158077e-005	4.609784e-001	5.734621e-001
7.621853917872361e-005	5.003393e-001	6.295627e-001
8.407568203586643e-005	5.365791e-001	6.832809e-001
9.078996775015214e-005	5.642517e-001	7.262063e-001
9.750425346443783e-005	5.888733e-001	7.661826e-001
1.042185391787235e-004	6.104437e-001	8.032097e-001
1.109328248930092e-004	6.289631e-001	8.372877e-001
1.176471106072949e-004	6.444314e-001	8.684166e-001
1.243613963215806e-004	6.568486e-001	8.965963e-001
1.310756820358663e-004	6.662147e-001	9.218269e-001
1.336471106072949e-004	6.688991e-001	9.305096e-001
1.362185391787234e-004	6.711097e-001	9.386897e-001
1.387899677501520e-004	6.728467e-001	9.463673e-001
1.413613963215806e-004	6.741100e-001	9.535422e-001
1.439328248930091e-004	6.748996e-001	9.602147e-001
1.465042534644377e-004	6.752155e-001	9.663846e-001
1.490756820358663e-004	6.750576e-001	9.720519e-001
1.513613963215805e-004	6.745170e-001	9.766532e-001
1.536471106072948e-004	6.736044e-001	9.808421e-001
1.559328248930091e-004	6.723199e-001	9.846188e-001
1.582185391787234e-004	6.706635e-001	9.879831e-001
1.605042534644377e-004	6.686352e-001	9.909350e-001
1.627899677501520e-004	6.662349e-001	9.934747e-001
1.650756820358662e-004	6.634628e-001	9.956020e-001
1.693613963215805e-004	6.572408e-001	9.984583e-001
1.736471106072948e-004	6.497723e-001	9.998480e-001
1.779328248930091e-004	6.410575e-001	9.997711e-001
1.822185391787233e-004	6.310962e-001	9.982275e-001
1.865042534644376e-004	6.198884e-001	9.952173e-001
1.907899677501519e-004	6.074342e-001	9.907404e-001
1.950756820358661e-004	5.937335e-001	9.847968e-001
2.025042534644376e-004	5.668719e-001	9.708158e-001
2.099328248930090e-004	5.369785e-001	9.527992e-001
2.173613963215804e-004	5.040534e-001	9.307471e-001
2.247899677501518e-004	4.680966e-001	9.046595e-001
2.322185391787233e-004	4.291081e-001	8.745363e-001
2.396471106072947e-004	3.870879e-001	8.403777e-001
2.470756820358661e-004	3.420359e-001	8.021835e-001
2.527899677501519e-004	3.058188e-001	7.703835e-001
2.585042534644378e-004	2.685515e-001	7.368034e-001
2.642185391787236e-004	2.302340e-001	7.014430e-001
2.699328248930095e-004	1.908663e-001	6.643025e-001
2.756471106072954e-004	1.504484e-001	6.253818e-001
2.813613963215812e-004	1.089802e-001	5.846809e-001
2.870756820358671e-004	6.646191e-002	5.421999e-001
2.896471106072957e-004	4.720024e-002	5.226996e-001
2.922185391787243e-004	2.784133e-002	5.029492e-001
2.947899677501530e-004	8.385169e-003	4.829487e-001
2.973613963215816e-004	-1.116824e-002	4.626980e-001
2.999328248930102e-004	-3.081889e-002	4.421971e-001
3.025042534644389e-004	-5.056678e-002	4.214462e-001
3.050756820358675e-004	-7.041192e-002	4.004450e-001
3.096471106072962e-004	-1.059381e-001	3.624776e-001
3.142185391787248e-004	-1.414381e-001	3.240667e-001
3.187899677501536e-004	-1.769121e-001	2.852123e-001
3.233613963215822e-004	-2.123600e-001	2.459144e-001
3.279328248930109e-004	-2.477818e-001	2.061729e-001
3.325042534644396e-004	-2.831776e-001	1.659880e-001
3.370756820358683e-004	-3.185472e-001	1.253596e-001
3.392185391787255e-004	-3.349914e-001	1.062987e-001
3.413613963215826e-004	-3.513612e-001	8.721629e-002
3.435042534644398e-004	-3.676565e-001	6.811237e-002
3.456471106072971e-004	-3.838773e-001	4.898694e-002
3.477899677501543e-004	-4.000237e-001	2.983999e-002
3.499328248930114e-004	-4.160957e-001	1.067152e-002
3.520756820358686e-004	-4.320932e-001	-8.518458e-003
3.560756820358687e-004	-4.617599e-001	-4.440678e-002
3.600756820358688e-004	-4.909583e-001	-8.012451e-002
3.640756820358689e-004	-5.196886e-001	-1.156717e-001
3.680756820358690e-004	-5.479507e-001	-1.510482e-001
3.720756820358691e-004	-5.757445e-001	-1.862542e-001
3.760756820358692e-004	-6.030702e-001	-2.212896e-001
3.800756820358693e-004	-6.299276e-001	-2.561544e-001
3.879328248930124e-004	-6.812947e-001	-3.241900e-001
3.957899677501554e-004	-7.295238e-001	-3.898479e-001
4.036471106072985e-004	-7.746150e-001	-4.531283e-001
4.115042534644415e-004	-8.165682e-001	-5.140309e-001
4.193613963215845e-004	-8.553835e-001	-5.725559e-001
4.272185391787276e-004	-8.910609e-001	-6.287033e-001
4.350756820358706e-004	-9.236003e-001	-6.824730e-001
4.413613963215851e-004	-9.466078e-001	-7.227464e-001
4.476471106072995e-004	-9.669447e-001	-7.604603e-001
4.539328248930140e-004	-9.846110e-001	-7.956146e-001
4.602185391787284e-004	-9.996066e-001	-8.282092e-001
4.665042534644429e-004	-1.011932e+000	-8.582443e-001
4.727899677501573e-004	-1.021586e+000	-8.857198e-001
4.790756820358717e-004	-1.028570e+000	-9.106358e-001
4.816471106073004e-004	-1.030570e+000	-9.199113e-001
4.842185391787290e-004	-1.032095e+000	-9.286892e-001
4.867899677501576e-004	-1.033147e+000	-9.369692e-001
4.893613963215862e-004	-1.033725e+000	-9.447516e-001
4.919328248930148e-004	-1.033828e+000	-9.520361e-001
4.945042534644436e-004	-1.033457e+000	-9.588229e-001
4.970756820358722e-004	-1.032613e+000	-9.651120e-001
4.995042534644437e-004	-1.031375e+000	-9.705782e-001
5.019328248930151e-004	-1.029716e+000	-9.755810e-001
5.043613963215866e-004	-1.027636e+000	-9.801202e-001
5.067899677501581e-004	-1.025133e+000	-9.841960e-001
5.092185391787296e-004	-1.022209e+000	-9.878083e-001
5.116471106073010e-004	-1.018864e+000	-9.909571e-001
5.140756820358726e-004	-1.015096e+000	-9.936423e-001
5.186471106073012e-004	-1.006833e+000	-9.974128e-001
5.232185391787300e-004	-9.971458e-001	-9.995144e-001
5.277899677501586e-004	-9.860340e-001	-9.999470e-001
5.323613963215873e-004	-9.734979e-001	-9.987107e-001
5.369328248930160e-004	-9.595374e-001	-9.958055e-001
5.415042534644447e-004	-9.441525e-001	-9.912314e-001
5.460756820358733e-004	-9.273433e-001	-9.849883e-001
5.535042534644450e-004	-8.968488e-001	-9.710799e-001
5.609328248930165e-004	-8.633187e-001	-9.531341e-001
5.683613963215882e-004	-8.267532e-001	-9.311508e-001
5.757899677501598e-004	-7.871521e-001	-9.051301e-001
5.832185391787314e-004	-7.445156e-001	-8.750720e-001
5.906471106073030e-004	-6.988436e-001	-8.409764e-001
5.980756820358746e-004	-6.501361e-001	-8.028433e-001
6.059328248930176e-004	-5.957827e-001	-7.583311e-001
6.137899677501607e-004	-5.397170e-001	-7.107062e-001
6.216471106073037e-004	-4.819388e-001	-6.599689e-001
6.295042534644468e-004	-4.224482e-001	-6.061190e-001
6.373613963215898e-004	-3.612453e-001	-5.491567e-001
6.452185391787329e-004	-2.983300e-001	-4.890817e-001
6.530756820358759e-004	-2.337023e-001	-4.258943e-001
6.569328248930189e-004	-2.019746e-001	-3.943255e-001
6.607899677501619e-004	-1.702135e-001	-3.623834e-001
6.646471106073048e-004	-1.384189e-001	-3.300683e-001
6.685042534644478e-004	-1.065909e-001	-2.973799e-001
6.723613963215907e-004	-7.472950e-002	-2.643183e-001
6.762185391787337e-004	-4.283463e-002	-2.308836e-001
6.800756820358766e-004	-1.090633e-002	-1.970756e-001
6.823613963215909e-004	7.935628e-003	-1.769649e-001
6.846471106073053e-004	2.671727e-002	-1.568012e-001
6.869328248930196e-004	4.543861e-002	-1.365847e-001
6.892185391787340e-004	6.409963e-002	-1.163153e-001
6.915042534644483e-004	8.270034e-002	-9.599308e-002
6.937899677501627e-004	1.012407e-001	-7.561798e-002
6.960756820358770e-004	1.197208e-001	-5.519002e-002
6.982185391787342e-004	1.369647e-001	-3.601996e-002
7.003613963215914e-004	1.541109e-001	-1.685427e-002
7.025042534644486e-004	1.711595e-001	2.307046e-003
7.046471106073057e-004	1.881105e-001	2.146400e-002
7.067899677501630e-004	2.049639e-001	4.061658e-002
7.089328248930201e-004	2.217197e-001	5.976480e-002
7.110756820358774e-004	2.383779e-001	7.890865e-002
7.167899677501632e-004	2.824235e-001	1.300753e-001
7.225042534644491e-004	3.252518e-001	1.805772e-001
7.282185391787350e-004	3.668626e-001	2.304144e-001
7.339328248930207e-004	4.072560e-001	2.795868e-001
7.396471106073066e-004	4.464320e-001	3.280945e-001
7.453613963215925e-004	4.843906e-001	3.759374e-001
7.510756820358783e-004	5.211318e-001	4.231155e-001
7.596471106073071e-004	5.734942e-001	4.921704e-001
7.682185391787359e-004	6.214502e-001	5.574387e-001
7.767899677501647e-004	6.649999e-001	6.189204e-001
7.853613963215934e-004	7.041431e-001	6.766155e-001
7.939328248930223e-004	7.388800e-001	7.305239e-001
8.025042534644510e-004	7.692104e-001	7.806457e-001
8.110756820358798e-004	7.951344e-001	8.269809e-001
8.159328248930227e-004	8.073294e-001	8.507176e-001
8.207899677501658e-004	8.178471e-001	8.727534e-001
8.256471106073087e-004	8.266876e-001	8.930883e-001
8.305042534644517e-004	8.338510e-001	9.117222e-001
8.353613963215946e-004	8.393371e-001	9.286552e-001
8.402185391787377e-004	8.431461e-001	9.438872e-001
8.450756820358806e-004	8.452778e-001	9.574183e-001
8.475042534644521e-004	8.456912e-001	9.634708e-001
8.499328248930235e-004	8.456801e-001	9.690625e-001
8.523613963215951e-004	8.452447e-001	9.741933e-001
8.547899677501666e-004	8.443849e-001	9.788633e-001
8.572185391787381e-004	8.431007e-001	9.830725e-001
8.596471106073095e-004	8.413921e-001	9.868208e-001
8.620756820358810e-004	8.392591e-001	9.901083e-001
8.670756820358811e-004	8.334912e-001	9.953933e-001
8.720756820358813e-004	8.260041e-001	9.986819e-001
8.770756820358814e-004	8.167980e-001	9.999741e-001
8.820756820358815e-004	8.058727e-001	9.992698e-001
8.870756820358816e-004	7.932283e-001	9.965692e-001
8.920756820358818e-004	7.788648e-001	9.918721e-001
8.970756820358819e-004	7.627822e-001	9.851786e-001
9.045042534644535e-004	7.356012e-001	9.713429e-001
9.119328248930250e-004	7.053630e-001	9.534678e-001
9.193613963215967e-004	6.720677e-001	9.315534e-001
9.267899677501683e-004	6.357153e-001	9.055996e-001
9.342185391787400e-004	5.963058e-001	8.756064e-001
9.416471106073115e-004	5.538391e-001	8.415739e-001
9.490756820358831e-004	5.083153e-001	8.035021e-001
9.536471106073118e-004	4.792249e-001	7.783700e-001
9.582185391787403e-004	4.494045e-001	7.520518e-001
9.627899677501690e-004	4.188542e-001	7.245476e-001
9.673613963215975e-004	3.875740e-001	6.958573e-001
9.719328248930262e-004	3.555639e-001	6.659809e-001
9.765042534644547e-004	3.228239e-001	6.349185e-001
9.810756820358834e-004	2.893540e-001	6.026700e-001
9.820756820358833e-004	2.819887e-001	5.955061e-001
9.867899677501687e-004	2.467752e-001	5.609377e-001
9.915042534644539e-004	2.112323e-001	5.255332e-001
9.962185391787393e-004	1.753602e-001	4.892928e-001
1.000932824893025e-003	1.391588e-001	4.522164e-001
1.005647110607310e-003	1.026282e-001	4.143039e-001
1.010361396321595e-003	6.576827e-002	3.755555e-001
1.015075682035881e-003	2.857909e-002	3.359711e-001
1.017218539178738e-003	1.169849e-002	3.178353e-001
1.019361396321594e-003	-5.179806e-003	2.995996e-001
1.021504253464451e-003	-2.205580e-002	2.812639e-001
1.023647110607308e-003	-3.892948e-002	2.628282e-001
1.025789967750165e-003	-5.580086e-002	2.442926e-001
1.027932824893022e-003	-7.266994e-002	2.256570e-001
1.030075682035879e-003	-8.953671e-002	2.069215e-001
1.033361396321593e-003	-1.153814e-001	1.780113e-001
1.036647110607307e-003	-1.410895e-001	1.490102e-001
1.039932824893021e-003	-1.666611e-001	1.199181e-001
1.043218539178735e-003	-1.920960e-001	9.073509e-002
1.046504253464449e-003	-2.173944e-001	6.146113e-002
1.049789967750163e-003	-2.425562e-001	3.209622e-002
1.053075682035877e-003	-2.675814e-001	2.640372e-003
1.056218539178734e-003	-2.913112e-001	-2.553217e-002
1.059361396321591e-003	-3.147789e-001	-5.362917e-002
1.062504253464448e-003	-3.379845e-001	-8.165062e-002
1.065647110607305e-003	-3.609280e-001	-1.095965e-001
1.068789967750162e-003	-3.836093e-001	-1.374669e-001
1.071932824893019e-003	-4.060286e-001	-1.652617e-001
1.075075682035876e-003	-4.281858e-001	-1.929809e-001
1.082361396321589e-003	-4.786432e-001	-2.571250e-001
1.089647110607303e-003	-5.266410e-001	-3.195359e-001
1.096932824893016e-003	-5.721790e-001	-3.802135e-001
1.104218539178730e-003	-6.152573e-001	-4.391579e-001
1.111504253464444e-003	-6.558759e-001	-4.963691e-001
1.118789967750158e-003	-6.940348e-001	-5.518471e-001
1.126075682035871e-003	-7.297341e-001	-6.055918e-001
1.133075682035871e-003	-7.609451e-001	-6.546198e-001
1.140075682035870e-003	-7.889557e-001	-7.006641e-001
1.147075682035869e-003	-8.137660e-001	-7.437247e-001
1.154075682035869e-003	-8.353759e-001	-7.838014e-001
1.161075682035868e-003	-8.537855e-001	-8.208944e-001
1.168075682035868e-003	-8.689947e-001	-8.550037e-001
1.175075682035867e-003	-8.810036e-001	-8.861291e-001
1.178075682035867e-003	-8.850136e-001	-8.982668e-001
1.181075682035867e-003	-8.883818e-001	-9.097380e-001
1.184075682035866e-003	-8.911083e-001	-9.205429e-001
1.187075682035866e-003	-8.931931e-001	-9.306814e-001
1.190075682035866e-003	-8.946362e-001	-9.401535e-001
1.193075682035866e-003	-8.954376e-001	-9.489592e-001
1.196075682035865e-003	-8.955973e-001	-9.570985e-001
1.198504253464437e-003	-8.952492e-001	-9.631741e-001
1.200932824893008e-003	-8.944792e-001	-9.687890e-001
1.203361396321579e-003	-8.932873e-001	-9.739431e-001
1.205789967750150e-003	-8.916735e-001	-9.786366e-001
1.208218539178722e-003	-8.896377e-001	-9.828693e-001
1.210647110607293e-003	-8.871800e-001	-9.866413e-001
1.213075682035864e-003	-8.843004e-001	-9.899525e-001
1.218075682035863e-003	-8.770031e-001	-9.952869e-001
1.223075682035863e-003	-8.679968e-001	-9.986248e-001
1.228075682035863e-003	-8.572814e-001	-9.999663e-001
1.233075682035862e-003	-8.448570e-001	-9.993113e-001
1.238075682035862e-003	-8.307236e-001	-9.966599e-001
1.243075682035861e-003	-8.148811e-001	-9.920120e-001
1.248075682035861e-003	-7.973295e-001	-9.853677e-001
1.255504253464432e-003	-7.679844e-001	-9.716047e-001
1.262932824893003e-003	-7.356029e-001	-9.538004e-001
1.270361396321573e-003	-7.001850e-001	-9.319548e-001
1.277789967750144e-003	-6.617307e-001	-9.060680e-001
1.285218539178715e-003	-6.202400e-001	-8.761399e-001
1.292647110607286e-003	-5.757129e-001	-8.421706e-001
1.300075682035857e-003	-5.281494e-001	-8.041599e-001
1.307218539178713e-003	-4.800532e-001	-7.640752e-001
1.314361396321570e-003	-4.304609e-001	-7.213391e-001
1.321504253464426e-003	-3.793724e-001	-6.759515e-001
1.328647110607283e-003	-3.267879e-001	-6.279125e-001
1.335789967750139e-003	-2.727073e-001	-5.772220e-001
1.342932824892996e-003	-2.171305e-001	-5.238800e-001
1.350075682035852e-003	-1.600577e-001	-4.678867e-001
1.352932824892995e-003	-1.371915e-001	-4.451051e-001
1.355789967750138e-003	-1.142615e-001	-4.220709e-001
1.358647110607280e-003	-9.126754e-002	-3.987839e-001
1.361504253464423e-003	-6.820972e-002	-3.752442e-001
1.364361396321565e-003	-4.508801e-002	-3.514517e-001
1.367218539178708e-003	-2.190242e-002	-3.274065e-001
1.370075682035851e-003	1.347044e-003	-3.031085e-001
1.372504253464422e-003	2.111004e-002	-2.823068e-001
1.374932824892993e-003	4.084911e-002	-2.613967e-001
1.377361396321564e-003	6.056427e-002	-2.403782e-001
1.379789967750136e-003	8.025550e-002	-2.192512e-001
1.382218539178707e-003	9.992282e-002	-1.980157e-001
1.384647110607278e-003	1.195662e-001	-1.766718e-001
1.387075682035849e-003	1.391857e-001	-1.552194e-001
1.389647110607278e-003	1.599004e-001	-1.324216e-001
1.392218539178706e-003	1.805147e-001	-1.095841e-001
1.394789967750134e-003	2.010283e-001	-8.670667e-002
1.397361396321563e-003	2.214415e-001	-6.378946e-002
1.399932824892991e-003	2.417541e-001	-4.083245e-002
1.402504253464419e-003	2.619663e-001	-1.783562e-002
1.405075682035848e-003	2.820778e-001	5.201017e-003
1.408789967750133e-003	3.109197e-001	3.851540e-002
1.412504253464419e-003	3.393664e-001	7.169608e-002
1.416218539178704e-003	3.674179e-001	1.047431e-001
1.419932824892989e-003	3.950742e-001	1.376563e-001
1.423647110607275e-003	4.223354e-001	1.704359e-001
1.427361396321560e-003	4.492014e-001	2.030818e-001
1.431075682035846e-003	4.756722e-001	2.355940e-001
1.438789967750131e-003	5.294142e-001	3.027965e-001
1.446504253464416e-003	5.801963e-001	3.678138e-001
1.454218539178701e-003	6.280185e-001	4.306459e-001
1.461932824892986e-003	6.728806e-001	4.912928e-001
1.469647110607271e-003	7.147828e-001	5.497545e-001
1.477361396321556e-003	7.537250e-001	6.060310e-001
1.485075682035841e-003	7.897073e-001	6.601223e-001
1.491789967750126e-003	8.178105e-001	7.043639e-001
1.498504253464411e-003	8.428758e-001	7.457220e-001
1.505218539178697e-003	8.649032e-001	7.841966e-001
1.511932824892982e-003	8.838928e-001	8.197877e-001
1.518647110607267e-003	8.998445e-001	8.524952e-001
