time	V(h)	V(vin)
0.000000000000000e+000	5.131318e-005	0.000000e+000
2.925714274023709e-009	5.381147e-005	2.617712e-006
5.851428548047419e-009	5.613526e-005	5.235423e-006
8.777142822071128e-009	5.828455e-005	7.853135e-006
1.170285709609484e-008	6.025933e-005	1.047085e-005
1.462857137011855e-008	6.205961e-005	1.308856e-005
1.755428564414226e-008	6.368538e-005	1.570627e-005
2.047999991816596e-008	6.513664e-005	1.832398e-005
4.095999983633192e-008	7.283742e-005	3.664796e-005
6.024045902453856e-008	7.503886e-005	5.389868e-005
9.552524836855362e-008	6.933585e-005	8.546888e-005
1.274909127718542e-007	5.726022e-005	1.140694e-004
1.615583958334459e-007	4.002585e-005	1.445504e-004
2.002875099185423e-007	2.113614e-005	1.792024e-004
2.496080173497974e-007	4.540991e-006	2.233307e-004
3.166878870540582e-007	-2.504520e-006	2.833488e-004
4.120582065076066e-007	7.040969e-006	3.686790e-004
5.104906182913608e-007	3.100325e-005	4.567490e-004
6.389368612544675e-007	8.471943e-005	5.716732e-004
8.077448992125470e-007	2.006417e-004	7.227100e-004
9.900374219696875e-007	3.822137e-004	8.858117e-004
1.218596785499479e-006	6.652350e-004	1.090309e-003
1.469963900713418e-006	1.002016e-003	1.315214e-003
1.789560693937519e-006	1.403060e-003	1.601165e-003
2.126338107333510e-006	1.740684e-003	1.902488e-003
2.425466522314228e-006	1.950246e-003	2.170125e-003
2.743238223293529e-006	2.106792e-003	2.454443e-003
3.066763426462431e-006	2.260666e-003	2.743908e-003
3.494956034622059e-006	2.528008e-003	3.127021e-003
3.901926678049509e-006	2.867585e-003	3.491146e-003
4.337606383455144e-006	3.285285e-003	3.880958e-003
4.834748087927057e-006	3.740653e-003	4.325759e-003
5.301405786871619e-006	4.101354e-003	4.743285e-003
5.898713050944051e-006	4.506632e-003	5.277705e-003
6.464584128828093e-006	4.912109e-003	5.783997e-003
7.092210676095145e-006	5.418543e-003	6.345540e-003
7.836115182496557e-006	6.030455e-003	7.011116e-003
8.828027562693907e-006	6.792748e-003	7.898580e-003
9.828027562693908e-006	7.542839e-003	8.793275e-003
1.082802756269391e-005	8.322120e-003	9.687962e-003
1.182802756269391e-005	9.103205e-003	1.058264e-002
1.282802756269391e-005	9.858352e-003	1.147731e-002
1.382802756269391e-005	1.061608e-002	1.237197e-002
1.482802756269391e-005	1.138799e-002	1.326663e-002
1.582802756269391e-005	1.214960e-002	1.416127e-002
1.682802756269391e-005	1.289991e-002	1.505590e-002
1.782802756269391e-005	1.365719e-002	1.595052e-002
1.982802756269391e-005	1.516614e-002	1.773971e-002
2.182802756269391e-005	1.666408e-002	1.952885e-002
2.282802756269391e-005	1.741165e-002	2.042340e-002
2.382802756269391e-005	1.815333e-002	2.131793e-002
2.482802756269392e-005	1.889524e-002	2.221244e-002
2.682802756269392e-005	2.037522e-002	2.400142e-002
2.882802756269392e-005	2.184515e-002	2.579031e-002
3.239945613412248e-005	2.445142e-002	2.898464e-002
3.597088470555104e-005	2.703263e-002	3.217860e-002
3.954231327697961e-005	2.958878e-002	3.537217e-002
4.311374184840818e-005	3.211988e-002	3.856537e-002
4.668517041983674e-005	3.462592e-002	4.175819e-002
5.025659899126530e-005	3.710690e-002	4.495063e-002
5.382802756269385e-005	3.956282e-002	4.814270e-002
8.982802756269401e-005	6.277300e-002	8.036752e-002
1.258280275626942e-004	8.366431e-002	1.124263e-001
1.618280275626943e-004	1.022367e-001	1.443191e-001
1.978280275626945e-004	1.184903e-001	1.760459e-001
2.338280275626946e-004	1.324250e-001	2.076067e-001
2.698280275626948e-004	1.440409e-001	2.390015e-001
3.058280275626948e-004	1.533378e-001	2.702302e-001
3.443994561341244e-004	1.609292e-001	3.033850e-001
3.829708847055539e-004	1.665431e-001	3.360827e-001
4.215423132769834e-004	1.701796e-001	3.683234e-001
4.601137418484129e-004	1.718388e-001	4.001071e-001
4.986851704198424e-004	1.715206e-001	4.314337e-001
5.372565989912719e-004	1.692249e-001	4.623033e-001
5.758280275627014e-004	1.649519e-001	4.927159e-001
6.141137418484166e-004	1.591556e-001	5.223113e-001
6.523994561341319e-004	1.522002e-001	5.512115e-001
6.906851704198471e-004	1.440859e-001	5.794165e-001
7.289708847055623e-004	1.348126e-001	6.069263e-001
7.672565989912775e-004	1.243803e-001	6.337410e-001
8.055423132769927e-004	1.127890e-001	6.598604e-001
8.438280275627079e-004	1.000387e-001	6.852847e-001
8.645423132769939e-004	9.291803e-002	6.986747e-001
8.852565989912799e-004	8.562521e-002	7.118138e-001
9.059708847055661e-004	7.816027e-002	7.247018e-001
9.266851704198521e-004	7.052322e-002	7.373388e-001
9.473994561341381e-004	6.271405e-002	7.497248e-001
9.681137418484241e-004	5.473277e-002	7.618598e-001
9.888280275627101e-004	4.657937e-002	7.737438e-001
9.898280275627100e-004	4.618452e-002	7.743103e-001
1.006828027562709e-003	3.941202e-002	7.838508e-001
1.023828027562707e-003	3.258788e-002	7.932047e-001
1.040828027562706e-003	2.571208e-002	8.023719e-001
1.057828027562704e-003	1.878464e-002	8.113525e-001
1.074828027562703e-003	1.180554e-002	8.201465e-001
1.091828027562702e-003	4.774807e-003	8.287539e-001
1.108828027562700e-003	-2.307579e-003	8.371747e-001
1.131256598991270e-003	-1.170222e-002	8.479909e-001
1.153685170419839e-003	-2.108574e-002	8.584556e-001
1.176113741848409e-003	-3.045814e-002	8.685687e-001
1.198542313276978e-003	-3.981943e-002	8.783302e-001
1.220970884705548e-003	-4.916959e-002	8.877401e-001
1.243399456134117e-003	-5.850863e-002	8.967984e-001
1.265828027562687e-003	-6.783655e-002	9.055052e-001
1.288256598991256e-003	-7.709583e-002	9.138450e-001
1.310685170419826e-003	-8.624866e-002	9.218093e-001
1.333113741848396e-003	-9.529503e-002	9.293981e-001
1.355542313276965e-003	-1.042349e-001	9.366112e-001
1.377970884705535e-003	-1.130684e-001	9.434488e-001
1.400399456134104e-003	-1.217954e-001	9.499109e-001
1.422828027562674e-003	-1.304159e-001	9.559973e-001
1.458542313276956e-003	-1.438744e-001	9.648986e-001
1.494256598991239e-003	-1.568324e-001	9.727975e-001
1.529970884705522e-003	-1.692899e-001	9.796942e-001
1.565685170419804e-003	-1.812469e-001	9.855885e-001
1.601399456134087e-003	-1.927034e-001	9.904806e-001
1.637113741848370e-003	-2.036593e-001	9.943703e-001
1.672828027562653e-003	-2.141148e-001	9.972578e-001
1.721399456134079e-003	-2.273427e-001	9.995194e-001
1.769970884705505e-003	-2.393056e-001	9.999023e-001
1.818542313276932e-003	-2.500033e-001	9.984065e-001
1.867113741848358e-003	-2.594361e-001	9.950320e-001
1.915685170419785e-003	-2.676037e-001	9.897788e-001
1.964256598991211e-003	-2.745063e-001	9.826468e-001
2.012828027562637e-003	-2.801438e-001	9.736362e-001
2.013828027562637e-003	-2.802443e-001	9.734317e-001
2.059685170419786e-003	-2.842229e-001	9.631601e-001
2.105542313276935e-003	-2.870221e-001	9.513250e-001
2.151399456134084e-003	-2.886418e-001	9.379262e-001
2.197256598991233e-003	-2.890823e-001	9.229639e-001
2.243113741848382e-003	-2.883433e-001	9.064380e-001
2.288970884705531e-003	-2.864250e-001	8.883484e-001
2.334828027562680e-003	-2.833273e-001	8.686953e-001
2.389970884705544e-003	-2.780039e-001	8.430231e-001
2.445113741848409e-003	-2.712532e-001	8.154802e-001
2.500256598991273e-003	-2.630751e-001	7.860667e-001
2.555399456134138e-003	-2.534697e-001	7.547826e-001
2.610542313277002e-003	-2.424369e-001	7.216278e-001
2.665685170419867e-003	-2.299767e-001	6.866024e-001
2.720828027562731e-003	-2.160892e-001	6.497064e-001
2.765970884705594e-003	-2.038547e-001	6.183434e-001
2.811113741848457e-003	-1.909911e-001	5.861074e-001
2.856256598991320e-003	-1.774985e-001	5.529985e-001
2.901399456134184e-003	-1.633768e-001	5.190166e-001
2.946542313277047e-003	-1.486260e-001	4.841618e-001
2.991685170419910e-003	-1.332462e-001	4.484340e-001
3.036828027562773e-003	-1.172374e-001	4.118332e-001
3.037828027562773e-003	-1.168801e-001	4.110177e-001
3.076542313277064e-003	-1.027995e-001	3.791014e-001
3.115256598991355e-003	-8.849627e-002	3.468282e-001
3.153970884705645e-003	-7.397051e-002	3.141983e-001
3.192685170419937e-003	-5.922219e-002	2.812117e-001
3.231399456134227e-003	-4.425130e-002	2.478683e-001
3.270113741848518e-003	-2.905785e-002	2.141682e-001
3.308828027562809e-003	-1.364183e-002	1.801113e-001
3.327828027562812e-003	-6.064345e-003	1.633521e-001
3.346828027562814e-003	1.526205e-003	1.465579e-001
3.365828027562817e-003	9.129822e-003	1.297286e-001
3.384828027562819e-003	1.674651e-002	1.128643e-001
3.403828027562822e-003	2.437626e-002	9.596496e-002
3.422828027562824e-003	3.201908e-002	7.903057e-002
3.441828027562827e-003	3.967496e-002	6.206114e-002
3.465399456134259e-003	4.917805e-002	4.097615e-002
3.488970884705690e-003	5.865659e-002	1.989637e-002
3.512542313277122e-003	6.811056e-002	-1.178207e-003
3.536113741848554e-003	7.753997e-002	-2.224758e-002
3.559685170419985e-003	8.694483e-002	-4.331174e-002
3.583256598991417e-003	9.632512e-002	-6.437069e-002
3.606828027562849e-003	1.056809e-001	-8.542444e-002
3.665685170419999e-003	1.290093e-001	-1.381035e-001
3.724542313277150e-003	1.516929e-001	-1.900458e-001
3.783399456134300e-003	1.737317e-001	-2.412511e-001
3.842256598991451e-003	1.951256e-001	-2.917196e-001
3.901113741848602e-003	2.158747e-001	-3.414512e-001
3.959970884705752e-003	2.359789e-001	-3.904459e-001
4.018828027562903e-003	2.554383e-001	-4.387037e-001
4.061828027562909e-003	2.688915e-001	-4.729438e-001
4.101256598991485e-003	2.808048e-001	-5.038165e-001
4.140685170420062e-003	2.921933e-001	-5.339711e-001
4.180113741848638e-003	3.030571e-001	-5.634076e-001
4.219542313277216e-003	3.133962e-001	-5.921260e-001
4.258970884705792e-003	3.232106e-001	-6.201263e-001
4.298399456134369e-003	3.325003e-001	-6.474085e-001
4.337828027562945e-003	3.412652e-001	-6.739726e-001
4.391256598991524e-003	3.522077e-001	-7.086772e-001
4.444685170420102e-003	3.619628e-001	-7.415868e-001
4.498113741848681e-003	3.705305e-001	-7.727013e-001
4.551542313277260e-003	3.779109e-001	-8.020209e-001
4.604970884705838e-003	3.841039e-001	-8.295454e-001
4.658399456134416e-003	3.891096e-001	-8.552750e-001
4.711828027562995e-003	3.929279e-001	-8.792095e-001
4.765113741848716e-003	3.954237e-001	-9.010095e-001
4.818399456134438e-003	3.966532e-001	-9.206646e-001
4.871685170420159e-003	3.966163e-001	-9.381748e-001
4.924970884705881e-003	3.953131e-001	-9.535401e-001
4.978256598991602e-003	3.927436e-001	-9.667606e-001
5.031542313277323e-003	3.889078e-001	-9.778363e-001
5.084828027563044e-003	3.838056e-001	-9.867671e-001
5.085828027563044e-003	3.836981e-001	-9.869118e-001
5.148685170420195e-003	3.759527e-001	-9.944117e-001
5.211542313277347e-003	3.666130e-001	-9.987623e-001
5.274399456134498e-003	3.556789e-001	-9.999635e-001
5.337256598991649e-003	3.431506e-001	-9.980154e-001
5.400113741848801e-003	3.290279e-001	-9.929180e-001
5.462970884705952e-003	3.133109e-001	-9.846711e-001
5.525828027563103e-003	2.959995e-001	-9.732749e-001
5.598542313277399e-003	2.740475e-001	-9.559999e-001
5.671256598991693e-003	2.506728e-001	-9.349498e-001
5.743970884705989e-003	2.258753e-001	-9.101245e-001
5.816685170420284e-003	1.996551e-001	-8.815241e-001
5.889399456134580e-003	1.720123e-001	-8.491486e-001
5.962113741848876e-003	1.429467e-001	-8.129980e-001
6.034828027563170e-003	1.124584e-001	-7.730722e-001
6.109828027563180e-003	8.043635e-002	-7.287987e-001
6.136970884706041e-003	6.862384e-002	-7.119301e-001
6.164113741848902e-003	5.674022e-002	-6.946679e-001
6.191256598991763e-003	4.478551e-002	-6.770119e-001
6.218399456134624e-003	3.275971e-002	-6.589621e-001
6.245542313277484e-003	2.066280e-002	-6.405187e-001
6.272685170420345e-003	8.494793e-003	-6.216816e-001
6.299828027563206e-003	-3.744311e-003	-6.024507e-001
6.336970884706068e-003	-2.058310e-002	-5.755197e-001
6.374113741848929e-003	-3.741416e-002	-5.480308e-001
6.411256598991792e-003	-5.423749e-002	-5.199841e-001
6.448399456134654e-003	-7.105310e-002	-4.913796e-001
6.485542313277516e-003	-8.786097e-002	-4.622173e-001
6.522685170420378e-003	-1.046611e-001	-4.324971e-001
6.559828027563240e-003	-1.214535e-001	-4.022191e-001
6.615256598991819e-003	-1.464384e-001	-3.560444e-001
6.670685170420397e-003	-1.709577e-001	-3.092859e-001
6.726113741848977e-003	-1.950113e-001	-2.619436e-001
6.781542313277556e-003	-2.185993e-001	-2.140174e-001
6.836970884706134e-003	-2.417217e-001	-1.655075e-001
6.892399456134713e-003	-2.643784e-001	-1.164137e-001
6.947828027563292e-003	-2.865695e-001	-6.673615e-002
6.972542313277581e-003	-2.961689e-001	-4.463141e-002
6.997256598991869e-003	-3.056047e-001	-2.253185e-002
7.021970884706159e-003	-3.148770e-001	-4.374747e-004
7.046685170420447e-003	-3.239858e-001	2.165172e-002
7.071399456134737e-003	-3.329310e-001	4.373573e-002
7.096113741849026e-003	-3.417128e-001	6.581455e-002
7.120828027563315e-003	-3.503309e-001	8.788820e-002
7.133828027563316e-003	-3.547835e-001	9.946841e-002
7.194828027563324e-003	-3.751440e-001	1.539921e-001
7.255828027563332e-003	-3.941191e-001	2.076651e-001
7.316828027563341e-003	-4.117087e-001	2.604874e-001
7.377828027563349e-003	-4.279128e-001	3.124590e-001
7.438828027563357e-003	-4.427314e-001	3.635799e-001
7.499828027563365e-003	-4.561645e-001	4.138501e-001
7.560828027563373e-003	-4.682121e-001	4.632696e-001
7.600399456134803e-003	-4.751031e-001	4.944418e-001
7.639970884706234e-003	-4.812879e-001	5.249015e-001
7.679542313277664e-003	-4.867665e-001	5.546487e-001
7.719113741849096e-003	-4.915389e-001	5.836833e-001
7.758685170420526e-003	-4.956052e-001	6.120054e-001
7.798256598991957e-003	-4.989652e-001	6.396149e-001
7.837828027563387e-003	-5.016191e-001	6.665118e-001
7.883399456134782e-003	-5.037476e-001	6.964574e-001
7.928970884706177e-003	-5.048881e-001	7.251323e-001
7.974542313277572e-003	-5.050408e-001	7.525366e-001
8.020113741848968e-003	-5.042057e-001	7.786703e-001
8.065685170420363e-003	-5.023826e-001	8.035333e-001
8.111256598991758e-003	-4.995716e-001	8.271258e-001
8.156828027563153e-003	-4.957728e-001	8.494475e-001
8.157828027563152e-003	-4.956784e-001	8.499193e-001
8.212113741848827e-003	-4.897902e-001	8.746127e-001
8.266399456134501e-003	-4.825657e-001	8.971255e-001
8.320685170420176e-003	-4.740048e-001	9.174580e-001
8.374970884705849e-003	-4.641077e-001	9.356099e-001
8.429256598991524e-003	-4.528742e-001	9.515815e-001
8.483542313277200e-003	-4.403043e-001	9.653725e-001
8.537828027562873e-003	-4.263982e-001	9.769831e-001
8.624256598991381e-003	-4.012998e-001	9.905188e-001
8.710685170419889e-003	-3.737106e-001	9.981253e-001
8.797113741848398e-003	-3.436307e-001	9.998028e-001
8.883542313276906e-003	-3.110601e-001	9.955512e-001
8.969970884705412e-003	-2.759987e-001	9.853705e-001
9.056399456133920e-003	-2.384465e-001	9.692607e-001
9.142828027562428e-003	-1.984036e-001	9.472218e-001
9.181828027562400e-003	-1.800251e-001	9.354611e-001
9.228113741848081e-003	-1.576977e-001	9.199436e-001
9.274399456133760e-003	-1.350829e-001	9.029291e-001
9.320685170419441e-003	-1.121805e-001	8.844176e-001
9.366970884705120e-003	-8.899073e-002	8.644091e-001
9.413256598990802e-003	-6.551344e-002	8.429037e-001
9.459542313276483e-003	-4.174867e-002	8.199013e-001
9.505828027562162e-003	-1.769642e-002	7.954019e-001
9.525685170419291e-003	-7.375046e-003	7.844997e-001
9.545542313276418e-003	2.956834e-003	7.733590e-001
9.565399456133546e-003	1.329922e-002	7.619796e-001
9.585256598990675e-003	2.365211e-002	7.503617e-001
9.605113741847804e-003	3.401550e-002	7.385051e-001
9.624970884704931e-003	4.438940e-002	7.264099e-001
9.644828027562060e-003	5.477381e-002	7.140762e-001
9.701970884704874e-003	8.482286e-002	6.770986e-001
9.759113741847691e-003	1.145415e-001	6.386146e-001
9.816256598990505e-003	1.439298e-001	5.986241e-001
9.873399456133320e-003	1.729878e-001	5.571272e-001
9.930542313276135e-003	2.017153e-001	5.141238e-001
9.987685170418951e-003	2.301124e-001	4.696140e-001
1.004482802756177e-002	2.581792e-001	4.235977e-001
1.006768517041889e-002	2.691595e-001	4.049651e-001
1.009054231327602e-002	2.800202e-001	3.861830e-001
1.011339945613314e-002	2.907616e-001	3.672513e-001
1.013625659899027e-002	3.013835e-001	3.481700e-001
1.015911374184740e-002	3.118859e-001	3.289392e-001
1.018197088470452e-002	3.222689e-001	3.095589e-001
1.020482802756165e-002	3.325324e-001	2.900290e-001
1.020582802756165e-002	3.329778e-001	2.891727e-001
1.024968517041876e-002	3.523264e-001	2.512475e-001
1.029354231327587e-002	3.710525e-001	2.130834e-001
1.033739945613298e-002	3.891563e-001	1.746805e-001
1.038125659899009e-002	4.066377e-001	1.360388e-001
1.042511374184720e-002	4.234967e-001	9.715826e-002
1.046897088470431e-002	4.397333e-001	5.803887e-002
1.051282802756142e-002	4.553475e-001	1.868064e-002
1.053025659898998e-002	4.613248e-001	3.078458e-003
1.054768517041854e-002	4.671812e-001	-1.251500e-002
1.056511374184710e-002	4.729167e-001	-2.809973e-002
1.058254231327566e-002	4.785313e-001	-4.367574e-002
1.059997088470422e-002	4.840250e-001	-5.924302e-002
1.061739945613277e-002	4.893977e-001	-7.480158e-002
1.063482802756133e-002	4.946495e-001	-9.035142e-002
1.069439945613272e-002	5.117370e-001	-1.436457e-001
1.075397088470410e-002	5.271689e-001	-1.961656e-001
1.081354231327549e-002	5.409450e-001	-2.479111e-001
1.087311374184687e-002	5.530655e-001	-2.988821e-001
1.093268517041826e-002	5.635304e-001	-3.490788e-001
1.099225659898964e-002	5.723395e-001	-3.985011e-001
1.105182802756103e-002	5.794930e-001	-4.471490e-001
1.107711374184672e-002	5.819518e-001	-4.672938e-001
1.110239945613242e-002	5.840842e-001	-4.871744e-001
1.112768517041811e-002	5.858903e-001	-5.067909e-001
1.115297088470381e-002	5.873700e-001	-5.261431e-001
1.117825659898951e-002	5.885234e-001	-5.452311e-001
1.120354231327520e-002	5.893504e-001	-5.640549e-001
1.122882802756090e-002	5.898511e-001	-5.826144e-001
1.122982802756090e-002	5.898641e-001	-5.833414e-001
1.126897088470372e-002	5.899611e-001	-6.115038e-001
1.130811374184655e-002	5.892681e-001	-6.388354e-001
1.134725659898938e-002	5.877850e-001	-6.653362e-001
1.138639945613221e-002	5.855117e-001	-6.910063e-001
1.142554231327504e-002	5.824484e-001	-7.158457e-001
1.146468517041787e-002	5.785949e-001	-7.398543e-001
1.150382802756069e-002	5.739514e-001	-7.630321e-001
1.156197088470351e-002	5.655426e-001	-7.957914e-001
1.162011374184632e-002	5.555133e-001	-8.262105e-001
1.167825659898914e-002	5.438636e-001	-8.542895e-001
1.173639945613195e-002	5.305934e-001	-8.800282e-001
1.179454231327477e-002	5.157028e-001	-9.034268e-001
1.185268517041758e-002	4.991917e-001	-9.244852e-001
1.191082802756040e-002	4.810601e-001	-9.432034e-001
1.195968517041750e-002	4.646691e-001	-9.568627e-001
1.200854231327461e-002	4.473613e-001	-9.686481e-001
1.205739945613172e-002	4.291368e-001	-9.785596e-001
1.210625659898882e-002	4.099954e-001	-9.865972e-001
1.215511374184593e-002	3.899373e-001	-9.927610e-001
1.220397088470304e-002	3.689624e-001	-9.970508e-001
1.225282802756014e-002	3.470707e-001	-9.994668e-001
1.225382802756014e-002	3.466164e-001	-9.994957e-001
1.232182802756009e-002	3.146417e-001	-9.994912e-001
1.238982802756004e-002	2.816319e-001	-9.958614e-001
1.245782802755999e-002	2.475868e-001	-9.886062e-001
1.252582802755994e-002	2.125065e-001	-9.777256e-001
1.259382802755989e-002	1.763909e-001	-9.632196e-001
1.266182802755984e-002	1.392401e-001	-9.450883e-001
1.272982802755979e-002	1.010541e-001	-9.233316e-001
1.275639945613120e-002	8.609533e-002	-9.139270e-001
1.278297088470261e-002	7.108775e-002	-9.040208e-001
1.280954231327402e-002	5.603138e-002	-8.936128e-001
1.283611374184543e-002	4.092622e-002	-8.827032e-001
1.286268517041684e-002	2.577228e-002	-8.712919e-001
1.288925659898825e-002	1.056954e-002	-8.593788e-001
1.291582802755966e-002	-4.681993e-003	-8.469641e-001
1.295482802755963e-002	-2.713416e-002	-8.278351e-001
1.299382802755960e-002	-4.951872e-002	-8.077627e-001
1.303282802755957e-002	-7.183566e-002	-7.867469e-001
1.307182802755954e-002	-9.408499e-002	-7.647878e-001
1.311082802755951e-002	-1.162667e-001	-7.418852e-001
