time	V(h)	V(vin)
0.000000000000000e+000	5.131318e-005	0.000000e+000
1.930527905013901e-008	5.241862e-005	1.727293e-006
3.861055810027802e-008	5.316548e-005	3.454585e-006
5.791583715041703e-008	5.355374e-005	5.181878e-006
7.722111620055604e-008	5.358341e-005	6.909171e-006
9.652639525069505e-008	5.325449e-005	8.636464e-006
1.158316743008341e-007	5.256698e-005	1.036376e-005
1.351369533509730e-007	5.152088e-005	1.209105e-005
1.837041108704946e-007	4.921176e-005	1.643648e-005
2.372621681722578e-007	4.703394e-005	2.122845e-005
2.991292035957552e-007	4.598838e-005	2.676386e-005
4.018991374810954e-007	4.666784e-005	3.595894e-005
4.852756989880135e-007	4.844222e-005	4.341886e-005
5.840035574403999e-007	5.167636e-005	5.225229e-005
6.869907945392027e-007	5.673611e-005	6.146682e-005
8.015730635582700e-007	6.514801e-005	7.171879e-005
9.518854731925628e-007	7.997557e-005	8.516763e-005
1.142995910149447e-006	1.028039e-004	1.022668e-004
1.339994183810587e-006	1.291108e-004	1.198927e-004
1.585885996178697e-006	1.623250e-004	1.418933e-004
1.857116217064163e-006	1.945453e-004	1.661609e-004
2.202112003280222e-006	2.249770e-004	1.970286e-004
2.693601397818195e-006	2.544118e-004	2.410034e-004
3.154943854124307e-006	2.783088e-004	2.822809e-004
3.643172942551589e-006	3.109712e-004	3.259640e-004
4.164931945373518e-006	3.568138e-004	3.726471e-004
4.828977885141333e-006	4.178183e-004	4.320610e-004
5.525833473685591e-006	4.727468e-004	4.944105e-004
6.289046813041415e-006	5.261177e-004	5.626971e-004
7.097701269174312e-006	5.873873e-004	6.350494e-004
8.097701269174312e-006	6.692476e-004	7.245220e-004
9.041594837013803e-006	7.427096e-004	8.089746e-004
1.004159483701380e-005	8.169524e-004	8.984471e-004
1.104159483701380e-005	8.943519e-004	9.879196e-004
1.304159483701381e-005	1.048679e-003	1.166865e-003
1.404159483701381e-005	1.123916e-003	1.256337e-003
1.504159483701381e-005	1.201097e-003	1.345810e-003
1.604159483701381e-005	1.277580e-003	1.435282e-003
1.704159483701381e-005	1.352448e-003	1.524754e-003
1.804159483701381e-005	1.427921e-003	1.614227e-003
2.004159483701381e-005	1.579029e-003	1.793172e-003
2.204159483701381e-005	1.728575e-003	1.972117e-003
2.404159483701381e-005	1.877560e-003	2.151061e-003
2.604159483701381e-005	2.025865e-003	2.330006e-003
2.804159483701381e-005	2.173118e-003	2.508951e-003
6.461302340844245e-005	4.710363e-003	5.781148e-003
1.011844519798711e-004	7.014030e-003	9.053196e-003
1.377558805512997e-004	9.084121e-003	1.232509e-002
1.743273091227284e-004	1.092063e-002	1.559684e-002
2.108987376941570e-004	1.252357e-002	1.886844e-002
2.474701662655856e-004	1.389293e-002	2.213989e-002
2.840415948370142e-004	1.502871e-002	2.541119e-002
3.294701662655868e-004	1.614045e-002	2.947444e-002
3.748987376941593e-004	1.700639e-002	3.353703e-002
4.203273091227318e-004	1.762652e-002	3.759896e-002
4.657558805513044e-004	1.800086e-002	4.166024e-002
5.111844519798770e-004	1.812940e-002	4.572087e-002
5.566130234084495e-004	1.801214e-002	4.978084e-002
6.020415948370219e-004	1.764908e-002	5.384016e-002
6.470415948370230e-004	1.711722e-002	5.786030e-002
6.920415948370241e-004	1.646478e-002	6.187934e-002
7.370415948370253e-004	1.569174e-002	6.589728e-002
7.820415948370262e-004	1.479811e-002	6.991412e-002
8.270415948370274e-004	1.378390e-002	7.392985e-002
8.720415948370285e-004	1.264909e-002	7.794449e-002
9.170415948370295e-004	1.139369e-002	8.195803e-002
9.930415948370295e-004	9.188187e-003	8.873311e-002
1.030755880551312e-003	8.024401e-003	9.209378e-002
1.068470166265595e-003	6.850036e-003	9.545330e-002
1.106184451979877e-003	5.665091e-003	9.881168e-002
1.143898737694160e-003	4.469566e-003	1.021689e-001
1.181613023408442e-003	3.263463e-003	1.055250e-001
1.219327309122725e-003	2.046780e-003	1.088800e-001
1.257041594837007e-003	8.195178e-004	1.122338e-001
1.296755880551290e-003	-4.590083e-004	1.157640e-001
1.336470166265572e-003	-1.711200e-003	1.192928e-001
1.376184451979855e-003	-2.937058e-003	1.228199e-001
1.415898737694137e-003	-4.136582e-003	1.263455e-001
1.455613023408419e-003	-5.309771e-003	1.298694e-001
1.495327309122702e-003	-6.456627e-003	1.333919e-001
1.535041594836984e-003	-7.577148e-003	1.369127e-001
1.603755880551266e-003	-9.422127e-003	1.430008e-001
1.672470166265548e-003	-1.111546e-002	1.490829e-001
1.741184451979830e-003	-1.265716e-002	1.551591e-001
1.809898737694112e-003	-1.404722e-002	1.612292e-001
1.878613023408394e-003	-1.528563e-002	1.672934e-001
1.947327309122675e-003	-1.637241e-002	1.733516e-001
2.016041594836957e-003	-1.730754e-002	1.794038e-001
2.017041594836957e-003	-1.731976e-002	1.794918e-001
2.104470166265540e-003	-1.822757e-002	1.871828e-001
2.191898737694124e-003	-1.890066e-002	1.948612e-001
2.279327309122706e-003	-1.933904e-002	2.025270e-001
2.366755880551289e-003	-1.954270e-002	2.101801e-001
2.454184451979873e-003	-1.951164e-002	2.178207e-001
2.541613023408456e-003	-1.924586e-002	2.254486e-001
2.629041594837039e-003	-1.874537e-002	2.330638e-001
2.687755880551332e-003	-1.831301e-002	2.381696e-001
2.746470166265625e-003	-1.781655e-002	2.432684e-001
2.805184451979919e-003	-1.725598e-002	2.483603e-001
2.863898737694213e-003	-1.663129e-002	2.534453e-001
2.922613023408506e-003	-1.594250e-002	2.585234e-001
2.981327309122800e-003	-1.518960e-002	2.635945e-001
3.040041594837093e-003	-1.437259e-002	2.686587e-001
3.041041594837093e-003	-1.435850e-002	2.687449e-001
3.117327309122818e-003	-1.322040e-002	2.753137e-001
3.193613023408542e-003	-1.204518e-002	2.818690e-001
3.269898737694267e-003	-1.083283e-002	2.884106e-001
3.346184451979991e-003	-9.583363e-003	2.949387e-001
3.422470166265715e-003	-8.296770e-003	3.014532e-001
3.498755880551440e-003	-6.973052e-003	3.079541e-001
3.575041594837164e-003	-5.612211e-003	3.144414e-001
3.635184451980029e-003	-4.548207e-003	3.195454e-001
3.695327309122894e-003	-3.496634e-003	3.246397e-001
3.755470166265759e-003	-2.457493e-003	3.297244e-001
3.815613023408625e-003	-1.430783e-003	3.347996e-001
3.875755880551490e-003	-4.165051e-004	3.398651e-001
3.935898737694355e-003	5.853411e-004	3.449209e-001
3.996041594837220e-003	1.574756e-003	3.499672e-001
4.065041594837229e-003	2.669466e-003	3.557437e-001
4.164613023408671e-003	4.204230e-003	3.640572e-001
4.264184451980113e-003	5.630441e-003	3.723402e-001
4.363755880551555e-003	6.948097e-003	3.805927e-001
4.463327309122997e-003	8.157198e-003	3.888146e-001
4.562898737694438e-003	9.257746e-003	3.970060e-001
4.662470166265880e-003	1.024974e-002	4.051669e-001
4.762041594837322e-003	1.113318e-002	4.132972e-001
4.808613023408757e-003	1.149509e-002	4.170881e-001
4.855184451980191e-003	1.182850e-002	4.208716e-001
4.901755880551626e-003	1.213340e-002	4.246477e-001
4.948327309123061e-003	1.240981e-002	4.284164e-001
4.994898737694495e-003	1.265771e-002	4.321776e-001
5.041470166265930e-003	1.287711e-002	4.359315e-001
5.088041594837365e-003	1.306801e-002	4.396780e-001
5.089041594837365e-003	1.307179e-002	4.397583e-001
5.225613023408812e-003	1.343377e-002	4.507037e-001
5.362184451980259e-003	1.358448e-002	4.615777e-001
5.498755880551706e-003	1.352390e-002	4.723804e-001
5.635327309123152e-003	1.325205e-002	4.831118e-001
5.771898737694599e-003	1.276892e-002	4.937719e-001
5.908470166266045e-003	1.207452e-002	5.043606e-001
6.045041594837492e-003	1.116884e-002	5.148780e-001
6.113041594837501e-003	1.067945e-002	5.200841e-001
6.210470166266085e-003	9.896848e-003	5.275112e-001
6.307898737694669e-003	9.073621e-003	5.348967e-001
6.405327309123255e-003	8.209766e-003	5.422408e-001
6.502755880551839e-003	7.305286e-003	5.495434e-001
6.600184451980423e-003	6.360178e-003	5.568045e-001
6.697613023409007e-003	5.374443e-003	5.640241e-001
6.795041594837591e-003	4.348082e-003	5.712022e-001
7.137041594837637e-003	8.044844e-004	5.960473e-001
7.218613023409076e-003	-2.764636e-005	6.018924e-001
7.300184451980516e-003	-8.313309e-004	6.077047e-001
7.381755880551955e-003	-1.606569e-003	6.134841e-001
7.463327309123395e-003	-2.353361e-003	6.192307e-001
7.544898737694834e-003	-3.071707e-003	6.249445e-001
7.626470166266273e-003	-3.761606e-003	6.306254e-001
7.708041594837713e-003	-4.423059e-003	6.362736e-001
7.772613023409107e-003	-4.913374e-003	6.407203e-001
7.837184451980500e-003	-5.374227e-003	6.451453e-001
7.901755880551895e-003	-5.805620e-003	6.495485e-001
7.966327309123288e-003	-6.207552e-003	6.539300e-001
8.030898737694683e-003	-6.580023e-003	6.582898e-001
8.095470166266078e-003	-6.923033e-003	6.626278e-001
8.160041594837471e-003	-7.236583e-003	6.669440e-001
8.161041594837470e-003	-7.241150e-003	6.670107e-001
8.307184451980219e-003	-7.815530e-003	6.766995e-001
8.453327309122970e-003	-8.226249e-003	6.862685e-001
8.599470166265720e-003	-8.473309e-003	6.957179e-001
8.745613023408469e-003	-8.556708e-003	7.050475e-001
8.891755880551220e-003	-8.476448e-003	7.142574e-001
9.037898737693969e-003	-8.232528e-003	7.233476e-001
9.184041594836719e-003	-7.824947e-003	7.323180e-001
9.185041594836718e-003	-7.821792e-003	7.323789e-001
9.296613023408064e-003	-7.412379e-003	7.391410e-001
9.408184451979411e-003	-6.951216e-003	7.458279e-001
9.519755880550759e-003	-6.438304e-003	7.524394e-001
9.631327309122105e-003	-5.873642e-003	7.589757e-001
9.742898737693451e-003	-5.257230e-003	7.654366e-001
9.854470166264798e-003	-4.589069e-003	7.718223e-001
9.966041594836144e-003	-3.869158e-003	7.781326e-001
1.020904159483597e-002	-2.278114e-003	7.916037e-001
1.030504159483590e-002	-1.627256e-003	7.968238e-001
1.040104159483582e-002	-9.907689e-004	8.019841e-001
1.049704159483575e-002	-3.686517e-004	8.070847e-001
1.059304159483568e-002	2.390951e-004	8.121256e-001
1.068904159483561e-002	8.324718e-004	8.171068e-001
1.078504159483554e-002	1.411478e-003	8.220282e-001
1.088104159483547e-002	1.976114e-003	8.268899e-001
1.093118445197829e-002	2.254699e-003	8.294047e-001
1.098132730912111e-002	2.523593e-003	8.319027e-001
1.103147016626393e-002	2.782797e-003	8.343839e-001
1.108161302340675e-002	3.032310e-003	8.368482e-001
1.113175588054957e-002	3.272133e-003	8.392957e-001
1.118189873769239e-002	3.502266e-003	8.417264e-001
1.123204159483521e-002	3.722709e-003	8.441402e-001
1.123304159483521e-002	3.726972e-003	8.441882e-001
1.137918445197796e-002	4.305689e-003	8.511279e-001
1.152532730912071e-002	4.777141e-003	8.579192e-001
1.167147016626346e-002	5.141326e-003	8.645622e-001
1.181761302340621e-002	5.398246e-003	8.710568e-001
1.196375588054896e-002	5.547900e-003	8.774031e-001
1.210989873769171e-002	5.590288e-003	8.836010e-001
1.225604159483446e-002	5.525411e-003	8.896506e-001
1.225704159483446e-002	5.524620e-003	8.896914e-001
1.238604159483437e-002	5.367465e-003	8.949033e-001
1.251504159483427e-002	5.153380e-003	8.999943e-001
1.264404159483418e-002	4.882367e-003	9.049645e-001
1.277304159483408e-002	4.554424e-003	9.098138e-001
1.290204159483399e-002	4.169553e-003	9.145422e-001
1.303104159483389e-002	3.727753e-003	9.191498e-001
1.316004159483380e-002	3.229024e-003	9.236365e-001
1.328104159483371e-002	2.750719e-003	9.277316e-001
1.338289873769078e-002	2.322649e-003	9.310953e-001
1.348475588054784e-002	1.895176e-003	9.343809e-001
1.358661302340491e-002	1.468300e-003	9.375886e-001
1.368847016626198e-002	1.042022e-003	9.407182e-001
1.379032730911905e-002	6.163399e-004	9.437699e-001
1.389218445197612e-002	1.912554e-004	9.467436e-001
1.399404159483319e-002	-2.332320e-004	9.496393e-001
1.403832730911887e-002	-4.100420e-004	9.508734e-001
1.408261302340455e-002	-5.833135e-004	9.520926e-001
1.412689873769023e-002	-7.530465e-004	9.532969e-001
1.417118445197591e-002	-9.192411e-004	9.544861e-001
1.421547016626159e-002	-1.081897e-003	9.556604e-001
1.425975588054728e-002	-1.241015e-003	9.568197e-001
1.430404159483296e-002	-1.396594e-003	9.579640e-001
1.430504159483296e-002	-1.400043e-003	9.579897e-001
1.445118445197571e-002	-1.888281e-003	9.616592e-001
1.459732730911846e-002	-2.311230e-003	9.651630e-001
1.474347016626121e-002	-2.668890e-003	9.685009e-001
1.488961302340396e-002	-2.961263e-003	9.716729e-001
1.503575588054671e-002	-3.188348e-003	9.746791e-001
1.518189873768946e-002	-3.350144e-003	9.775195e-001
1.532804159483221e-002	-3.446652e-003	9.801941e-001
1.532904159483220e-002	-3.447029e-003	9.802118e-001
1.547518445197513e-002	-3.455290e-003	9.827172e-001
1.562132730911807e-002	-3.407970e-003	9.850536e-001
1.576747016626099e-002	-3.305072e-003	9.872211e-001
1.591361302340393e-002	-3.146594e-003	9.892197e-001
1.605975588054686e-002	-2.932537e-003	9.910494e-001
1.620589873768978e-002	-2.662901e-003	9.927101e-001
1.635204159483272e-002	-2.337685e-003	9.942020e-001
1.635304159483272e-002	-2.335434e-003	9.942116e-001
1.647189873768998e-002	-2.046896e-003	9.952981e-001
1.659075588054724e-002	-1.751108e-003	9.962719e-001
1.670961302340450e-002	-1.448070e-003	9.971329e-001
1.682847016626176e-002	-1.137781e-003	9.978810e-001
1.694732730911903e-002	-8.202410e-004	9.985164e-001
1.706618445197629e-002	-4.954508e-004	9.990390e-001
1.718504159483355e-002	-1.634100e-004	9.994487e-001
1.737704159483374e-002	3.395083e-004	9.998716e-001
1.752318445197675e-002	7.106750e-004	9.999955e-001
1.766932730911975e-002	1.045458e-003	9.999486e-001
1.781547016626275e-002	1.343856e-003	9.997308e-001
1.796161302340575e-002	1.605871e-003	9.993422e-001
1.810775588054876e-002	1.831502e-003	9.987827e-001
1.825389873769176e-002	2.020748e-003	9.980523e-001
1.840004159483476e-002	2.173611e-003	9.971510e-001
1.840104159483477e-002	2.174447e-003	9.971443e-001
1.854718445197777e-002	2.269269e-003	9.960709e-001
1.869332730912077e-002	2.323064e-003	9.948279e-001
1.883947016626377e-002	2.335832e-003	9.934152e-001
1.898561302340678e-002	2.307572e-003	9.918328e-001
1.913175588054978e-002	2.238286e-003	9.900807e-001
1.927789873769278e-002	2.127972e-003	9.881590e-001
1.942404159483579e-002	1.976632e-003	9.860675e-001
1.942504159483579e-002	1.975530e-003	9.860526e-001
1.956461302340736e-002	1.797801e-003	9.838964e-001
1.970418445197893e-002	1.607124e-003	9.815878e-001
1.984375588055050e-002	1.403499e-003	9.791266e-001
1.998332730912206e-002	1.186928e-003	9.765130e-001
2.012289873769363e-002	9.574088e-004	9.737469e-001
2.026247016626520e-002	7.149425e-004	9.708284e-001
2.040204159483677e-002	4.595289e-004	9.677574e-001
2.044904159483681e-002	3.774959e-004	9.666896e-001
2.059518445197982e-002	1.168904e-004	9.632587e-001
2.074132730912282e-002	-1.258911e-004	9.596647e-001
2.088747016626582e-002	-3.508486e-004	9.559076e-001
2.103361302340883e-002	-5.579822e-004	9.519874e-001
2.117975588055183e-002	-7.472917e-004	9.479042e-001
2.132589873769483e-002	-9.187772e-004	9.436578e-001
2.147204159483784e-002	-1.072439e-003	9.392484e-001
2.147304159483784e-002	-1.073346e-003	9.392177e-001
2.161918445198084e-002	-1.191529e-003	9.346463e-001
2.176532730912384e-002	-1.281625e-003	9.299171e-001
2.191147016626685e-002	-1.343634e-003	9.250302e-001
2.205761302340985e-002	-1.377556e-003	9.199856e-001
2.220375588055286e-002	-1.383392e-003	9.147833e-001
2.234989873769586e-002	-1.361140e-003	9.094233e-001
2.249604159483886e-002	-1.310802e-003	9.039056e-001
2.249704159483886e-002	-1.310384e-003	9.038674e-001
2.264318445198187e-002	-1.230313e-003	8.981937e-001
2.278932730912487e-002	-1.135669e-003	8.923690e-001
2.293547016626787e-002	-1.026451e-003	8.863933e-001
2.308161302341088e-002	-9.026588e-004	8.802666e-001
2.322775588055388e-002	-7.642934e-004	8.739889e-001
2.337389873769688e-002	-6.113545e-004	8.675602e-001
2.352004159483988e-002	-4.438419e-004	8.609806e-001
2.352104159483989e-002	-4.427324e-004	8.609350e-001
2.366718445198289e-002	-2.724516e-004	8.542068e-001
2.381332730912589e-002	-1.089678e-004	8.473355e-001
2.395947016626890e-002	4.771900e-005	8.403211e-001
2.410561302341190e-002	1.976088e-004	8.331637e-001
2.425175588055490e-002	3.407015e-004	8.258633e-001
2.439789873769790e-002	4.769973e-004	8.184198e-001
2.454404159484091e-002	6.064960e-004	8.108333e-001
2.454504159484091e-002	6.072895e-004	8.107809e-001
2.469118445198391e-002	7.169003e-004	8.030544e-001
2.483732730912691e-002	8.085867e-004	7.951941e-001
2.498347016626992e-002	8.823485e-004	7.871999e-001
2.512961302341292e-002	9.381858e-004	7.790719e-001
2.527575588055593e-002	9.760986e-004	7.708099e-001
2.542189873769893e-002	9.960868e-004	7.624141e-001
2.556804159484193e-002	9.981506e-004	7.538844e-001
2.556904159484193e-002	9.980998e-004	7.538257e-001
2.571518445198494e-002	9.781113e-004	7.451659e-001
2.586132730912794e-002	9.453294e-004	7.363825e-001
2.600747016627094e-002	8.997541e-004	7.274756e-001
2.615361302341395e-002	8.413854e-004	7.184450e-001
2.629975588055695e-002	7.702233e-004	7.092909e-001
2.644589873769995e-002	6.862677e-004	7.000131e-001
2.659204159484296e-002	5.895188e-004	6.906118e-001
2.659304159484296e-002	5.888623e-004	6.905471e-001
2.761704159484398e-002	-1.202056e-004	6.214760e-001
2.776318445198699e-002	-2.090832e-004	6.111746e-001
2.790932730912999e-002	-2.873775e-004	6.007733e-001
2.805547016627299e-002	-3.550887e-004	5.902719e-001
2.820161302341600e-002	-4.122166e-004	5.796706e-001
2.834775588055900e-002	-4.587612e-004	5.689693e-001
2.849389873770200e-002	-4.947227e-004	5.581679e-001
2.864004159484501e-002	-5.201009e-004	5.472666e-001
2.864104159484501e-002	-5.202237e-004	5.471917e-001
2.878718445198801e-002	-5.304449e-004	5.361959e-001
2.893332730913101e-002	-5.306909e-004	5.251132e-001
2.907947016627402e-002	-5.209619e-004	5.139437e-001
2.922561302341702e-002	-5.012577e-004	5.026872e-001
2.937175588056002e-002	-4.715785e-004	4.913438e-001
2.951789873770302e-002	-4.319241e-004	4.799136e-001
2.966404159484603e-002	-3.822946e-004	4.683965e-001
2.966504159484603e-002	-3.819459e-004	4.683174e-001
2.981118445198903e-002	-3.246149e-004	4.567194e-001
2.995732730913204e-002	-2.653501e-004	4.450484e-001
3.010347016627504e-002	-2.041514e-004	4.333043e-001
3.024961302341804e-002	-1.410190e-004	4.214871e-001
3.039575588056105e-002	-7.595268e-005	4.095969e-001
3.054189873770405e-002	-8.952581e-006	3.976336e-001
3.068804159484705e-002	5.998133e-005	3.855973e-001
3.068904159484705e-002	6.042337e-005	3.855147e-001
3.083518445199006e-002	1.255256e-004	3.734118e-001
3.098132730913306e-002	1.849630e-004	3.612503e-001
3.112747016627606e-002	2.387353e-004	3.490302e-001
3.127361302341906e-002	2.868428e-004	3.367514e-001
3.141975588056207e-002	3.292853e-004	3.244141e-001
3.156589873770507e-002	3.660628e-004	3.120181e-001
3.171204159484808e-002	3.971754e-004	2.995635e-001
3.171304159484808e-002	3.973516e-004	2.994782e-001
3.185918445199108e-002	4.187515e-004	2.869719e-001
3.200532730913409e-002	4.329967e-004	2.744219e-001
3.215147016627709e-002	4.400871e-004	2.618283e-001
3.229761302342009e-002	4.400228e-004	2.491910e-001
3.244375588056309e-002	4.328037e-004	2.365100e-001
3.258989873770610e-002	4.184298e-004	2.237853e-001
3.273604159484910e-002	3.969012e-004	2.110170e-001
3.273704159484910e-002	3.967397e-004	2.109295e-001
3.288318445199211e-002	3.683923e-004	1.981248e-001
3.302932730913511e-002	3.371880e-004	1.852916e-001
3.317547016627812e-002	3.031269e-004	1.724301e-001
3.332161302342111e-002	2.662090e-004	1.595402e-001
3.346775588056412e-002	2.264343e-004	1.466220e-001
3.361389873770712e-002	1.838028e-004	1.336753e-001
3.376004159485013e-002	1.383144e-004	1.207003e-001
3.376104159485013e-002	1.380169e-004	1.206115e-001
3.390718445199313e-002	9.309364e-005	1.076157e-001
3.405332730913614e-002	5.075852e-005	9.460703e-002
3.419947016627914e-002	1.101154e-005	8.158553e-002
3.434561302342214e-002	-2.614732e-005	6.855120e-002
3.449175588056514e-002	-6.071804e-005	5.550404e-002
3.463789873770815e-002	-9.270064e-005	4.244405e-002
3.478404159485115e-002	-1.220951e-004	2.937122e-002
3.478504159485115e-002	-1.222717e-004	2.928179e-002
3.493118445199415e-002	-1.459030e-004	1.620390e-002
