time	V(h)	V(vin)
0.000000000000000e+000	5.131318e-005	0.000000e+000
1.006310719994777e-003	5.132327e-005	0.000000e+000
2.030310719994708e-003	5.133134e-005	0.000000e+000
3.054310719994844e-003	5.132079e-005	0.000000e+000
4.078310719994979e-003	5.130598e-005	0.000000e+000
5.102310719995115e-003	5.130045e-005	0.000000e+000
6.126310719995251e-003	5.130614e-005	0.000000e+000
7.150310719995387e-003	5.131592e-005	0.000000e+000
8.174310719995210e-003	5.132139e-005	0.000000e+000
9.198310719994458e-003	5.131943e-005	0.000000e+000
1.022231071999371e-002	5.131329e-005	0.000000e+000
1.124631071999295e-002	5.130864e-005	0.000000e+000
1.227031071999220e-002	5.130865e-005	0.000000e+000
1.329431071999145e-002	5.131220e-005	0.000000e+000
1.431831071999070e-002	5.131576e-005	0.000000e+000
1.534231071998994e-002	5.131662e-005	0.000000e+000
1.636631071999048e-002	5.131477e-005	0.000000e+000
1.739031071999150e-002	5.131226e-005	0.000000e+000
1.841431071999253e-002	5.131115e-005	0.000000e+000
1.943831071999355e-002	5.131196e-005	0.000000e+000
2.046231071999458e-002	5.131361e-005	0.000000e+000
2.148631071999560e-002	5.131465e-005	0.000000e+000
2.251031071999662e-002	5.131443e-005	0.000000e+000
2.353431071999765e-002	5.131343e-005	0.000000e+000
2.455831071999867e-002	5.131258e-005	0.000000e+000
2.558231071999970e-002	5.131250e-005	0.000000e+000
2.660631072000072e-002	5.131306e-005	0.000000e+000
2.763031072000174e-002	5.131369e-005	0.000000e+000
2.865431072000277e-002	5.131389e-005	0.000000e+000
2.967831072000379e-002	5.131361e-005	0.000000e+000
3.070231072000482e-002	5.131318e-005	0.000000e+000
3.172631072000584e-002	5.131296e-005	0.000000e+000
3.275031072000686e-002	5.131307e-005	0.000000e+000
3.377431072000789e-002	5.131334e-005	0.000000e+000
3.479831072000891e-002	5.131354e-005	0.000000e+000
3.510000000000000e-002	5.131355e-005	0.000000e+000
3.510000014285714e-002	1.425484e-001	1.428571e-001
3.510000028571429e-002	2.846343e-001	2.857143e-001
3.510000042857143e-002	4.263090e-001	4.285714e-001
3.510000057142857e-002	5.675726e-001	5.714286e-001
3.510000071428571e-002	7.084251e-001	7.142857e-001
3.510000085714286e-002	8.488664e-001	8.571429e-001
3.510000100000000e-002	9.888965e-001	1.000000e+000
3.510000312741805e-002	9.432619e-001	1.000000e+000
3.510000525483611e-002	8.991681e-001	1.000000e+000
3.510000738225416e-002	8.566152e-001	1.000000e+000
3.510000950967222e-002	8.156032e-001	1.000000e+000
3.510001163709027e-002	7.761321e-001	1.000000e+000
3.510001376450832e-002	7.382019e-001	1.000000e+000
3.510001589192638e-002	7.018126e-001	1.000000e+000
3.510002241702321e-002	5.948444e-001	1.000000e+000
3.510003069503126e-002	4.698272e-001	1.000000e+000
3.510004053559898e-002	3.328205e-001	1.000000e+000
3.510005273996840e-002	1.761794e-001	1.000000e+000
3.510006569159149e-002	2.377520e-002	1.000000e+000
3.510007897205677e-002	-1.173319e-001	1.000000e+000
3.510009179118613e-002	-2.377868e-001	1.000000e+000
3.510010336562442e-002	-3.312927e-001	1.000000e+000
3.510011472592146e-002	-4.058421e-001	1.000000e+000
3.510013082032042e-002	-4.815592e-001	1.000000e+000
3.510015321206553e-002	-5.403138e-001	1.000000e+000
3.510017395188377e-002	-5.509127e-001	1.000000e+000
3.510019289304437e-002	-5.277793e-001	1.000000e+000
3.510020341488834e-002	-5.029951e-001	1.000000e+000
3.510021007604612e-002	-4.826074e-001	1.000000e+000
3.510021723273146e-002	-4.577672e-001	1.000000e+000
3.510022487260874e-002	-4.287696e-001	1.000000e+000
3.510023617555035e-002	-3.826046e-001	1.000000e+000
3.510024947872442e-002	-3.254600e-001	1.000000e+000
3.510026684606563e-002	-2.495938e-001	1.000000e+000
3.510028652226643e-002	-1.667462e-001	1.000000e+000
3.510031066981351e-002	-7.543913e-002	1.000000e+000
3.510033826511756e-002	1.004422e-002	1.000000e+000
3.510036998618558e-002	8.276381e-002	1.000000e+000
3.510040212285901e-002	1.334449e-001	1.000000e+000
3.510042911736240e-002	1.630030e-001	1.000000e+000
3.510045346337114e-002	1.847975e-001	1.000000e+000
3.510048163213871e-002	2.115076e-001	1.000000e+000
3.510051228804804e-002	2.481636e-001	1.000000e+000
3.510054656767509e-002	3.019999e-001	1.000000e+000
3.510058313272646e-002	3.743960e-001	1.000000e+000
3.510062464254392e-002	4.695810e-001	1.000000e+000
3.510064437462175e-002	5.183306e-001	1.000000e+000
3.510066054533079e-002	5.594559e-001	1.000000e+000
3.510067710518078e-002	6.015283e-001	1.000000e+000
3.510069225507091e-002	6.395523e-001	1.000000e+000
3.510070833205897e-002	6.790972e-001	1.000000e+000
3.510072435455162e-002	7.173595e-001	1.000000e+000
3.510074723367123e-002	7.696909e-001	1.000000e+000
3.510078100728702e-002	8.419722e-001	1.000000e+000
3.510084855451860e-002	9.768271e-001	1.000000e+000
3.510088101015996e-002	1.037964e+000	1.000000e+000
3.510090545647409e-002	1.082019e+000	1.000000e+000
3.510093294608846e-002	1.130423e+000	1.000000e+000
3.510096018155730e-002	1.177007e+000	1.000000e+000
3.510100653093806e-002	1.252049e+000	1.000000e+000
3.510107175767141e-002	1.347010e+000	1.000000e+000
3.510114750048582e-002	1.438265e+000	1.000000e+000
3.510122616122482e-002	1.505881e+000	1.000000e+000
3.510133461788415e-002	1.554924e+000	1.000000e+000
3.510146105522916e-002	1.559004e+000	1.000000e+000
3.510157418138751e-002	1.515309e+000	1.000000e+000
3.510168843383205e-002	1.428855e+000	1.000000e+000
3.510180247041692e-002	1.309713e+000	1.000000e+000
3.510194956513499e-002	1.128995e+000	1.000000e+000
3.510206756166598e-002	9.761820e-001	1.000000e+000
3.510218917388745e-002	8.231151e-001	1.000000e+000
3.510229957538282e-002	6.988003e-001	1.000000e+000
3.510241521130190e-002	5.924272e-001	1.000000e+000
3.510253644869089e-002	5.115383e-001	1.000000e+000
3.510264990880777e-002	4.681692e-001	1.000000e+000
3.510277060252301e-002	4.597507e-001	1.000000e+000
3.510292936167070e-002	4.986619e-001	1.000000e+000
3.510311139817784e-002	5.920314e-001	1.000000e+000
3.510325010975912e-002	6.889913e-001	1.000000e+000
3.510335909077062e-002	7.748760e-001	1.000000e+000
3.510346969350275e-002	8.623641e-001	1.000000e+000
3.510358073802466e-002	9.438074e-001	1.000000e+000
3.510370124922422e-002	1.019693e+000	1.000000e+000
3.510381477345170e-002	1.073225e+000	1.000000e+000
3.510397545406412e-002	1.115311e+000	1.000000e+000
3.510416397981721e-002	1.121011e+000	1.000000e+000
3.510433552690682e-002	1.087815e+000	1.000000e+000
3.510449614900368e-002	1.029609e+000	1.000000e+000
3.510462666452416e-002	9.699076e-001	1.000000e+000
3.510473683050559e-002	9.156483e-001	1.000000e+000
3.510484866928439e-002	8.617649e-001	1.000000e+000
3.510496153533407e-002	8.123611e-001	1.000000e+000
3.510507437410112e-002	7.710715e-001	1.000000e+000
3.510519371627446e-002	7.398919e-001	1.000000e+000
3.510536329080859e-002	7.186407e-001	1.000000e+000
3.510556646741157e-002	7.235472e-001	1.000000e+000
3.510576137975680e-002	7.541727e-001	1.000000e+000
3.510590013348112e-002	7.885448e-001	1.000000e+000
3.510600803401943e-002	8.200481e-001	1.000000e+000
3.510611777453000e-002	8.530198e-001	1.000000e+000
3.510622850696614e-002	8.846720e-001	1.000000e+000
3.510634123343921e-002	9.131919e-001	1.000000e+000
3.510645490751457e-002	9.361165e-001	1.000000e+000
3.510659372710405e-002	9.541865e-001	1.000000e+000
3.510677265717609e-002	9.610819e-001	1.000000e+000
3.510700660108676e-002	9.486839e-001	1.000000e+000
3.510716956352043e-002	9.281678e-001	1.000000e+000
3.510728854927010e-002	9.077650e-001	1.000000e+000
3.510739651665416e-002	8.875311e-001	1.000000e+000
3.510751658928510e-002	8.652437e-001	1.000000e+000
3.510762972301310e-002	8.459312e-001	1.000000e+000
3.510774499878741e-002	8.292108e-001	1.000000e+000
3.510785944096361e-002	8.169511e-001	1.000000e+000
3.510802327765553e-002	8.075336e-001	1.000000e+000
3.510821677131140e-002	8.068944e-001	1.000000e+000
3.510838610955354e-002	8.148408e-001	1.000000e+000
3.510852252854989e-002	8.262702e-001	1.000000e+000
3.510863948853594e-002	8.384647e-001	1.000000e+000
3.510874914357898e-002	8.507368e-001	1.000000e+000
3.510886422816330e-002	8.634031e-001	1.000000e+000
3.510898009554286e-002	8.750302e-001	1.000000e+000
3.510909610010671e-002	8.847479e-001	1.000000e+000
3.510921755495396e-002	8.919634e-001	1.000000e+000
3.510938586372298e-002	8.966184e-001	1.000000e+000
3.510958900381539e-002	8.954446e-001	1.000000e+000
3.510974491557263e-002	8.898696e-001	1.000000e+000
3.510987514176060e-002	8.824140e-001	1.000000e+000
3.510999114757856e-002	8.744697e-001	1.000000e+000
3.511011145991050e-002	8.657891e-001	1.000000e+000
3.511024990600377e-002	8.561863e-001	1.000000e+000
3.511038540681900e-002	8.479856e-001	1.000000e+000
3.511052585402388e-002	8.414661e-001	1.000000e+000
3.511067187156104e-002	8.374490e-001	1.000000e+000
3.511086043105623e-002	8.363497e-001	1.000000e+000
3.511106452326025e-002	8.392254e-001	1.000000e+000
3.511121390402693e-002	8.436237e-001	1.000000e+000
3.511134823450319e-002	8.487616e-001	1.000000e+000
3.511149739580837e-002	8.547715e-001	1.000000e+000
3.511165642670084e-002	8.606578e-001	1.000000e+000
3.511181689062965e-002	8.653120e-001	1.000000e+000
3.511198456220378e-002	8.681914e-001	1.000000e+000
3.511216858067046e-002	8.687005e-001	1.000000e+000
3.511239754114460e-002	8.662000e-001	1.000000e+000
3.511257735245178e-002	8.623579e-001	1.000000e+000
3.511274440808842e-002	8.578209e-001	1.000000e+000
3.511293879771203e-002	8.524843e-001	1.000000e+000
3.511312002170243e-002	8.482788e-001	1.000000e+000
3.511331881397237e-002	8.451840e-001	1.000000e+000
3.511352185202556e-002	8.440271e-001	1.000000e+000
3.511378437590258e-002	8.450023e-001	1.000000e+000
3.511399152270646e-002	8.471578e-001	1.000000e+000
3.511418843826731e-002	8.497828e-001	1.000000e+000
3.511441678119216e-002	8.525183e-001	1.000000e+000
3.511463356999493e-002	8.541114e-001	1.000000e+000
3.511487696159958e-002	8.542824e-001	1.000000e+000
3.511515231356160e-002	8.527245e-001	1.000000e+000
3.511537066612056e-002	8.505099e-001	1.000000e+000
3.511559497170902e-002	8.478873e-001	1.000000e+000
3.511586627323438e-002	8.451334e-001	1.000000e+000
3.511612204621772e-002	8.435247e-001	1.000000e+000
3.511642455432065e-002	8.430552e-001	1.000000e+000
3.511674449122636e-002	8.437178e-001	1.000000e+000
3.511703072411496e-002	8.446687e-001	1.000000e+000
3.511735675664478e-002	8.453215e-001	1.000000e+000
3.511766064180588e-002	8.449995e-001	1.000000e+000
3.511804138645373e-002	8.434564e-001	1.000000e+000
3.511833995158331e-002	8.418059e-001	1.000000e+000
3.511867360189420e-002	8.401051e-001	1.000000e+000
3.511905105984210e-002	8.389112e-001	1.000000e+000
3.511945814495155e-002	8.384535e-001	1.000000e+000
3.511980065736772e-002	8.384023e-001	1.000000e+000
3.512019525741335e-002	8.381383e-001	1.000000e+000
3.512064527121232e-002	8.371902e-001	1.000000e+000
3.512116844964193e-002	8.355091e-001	1.000000e+000
3.512165111176969e-002	8.339950e-001	1.000000e+000
3.512220287558011e-002	8.327730e-001	1.000000e+000
3.512277877204270e-002	8.318841e-001	1.000000e+000
3.512335632000671e-002	8.308641e-001	1.000000e+000
3.512401186295693e-002	8.292996e-001	1.000000e+000
3.512482621795821e-002	8.272439e-001	1.000000e+000
3.512556221982238e-002	8.256623e-001	1.000000e+000
3.512644172763480e-002	8.239157e-001	1.000000e+000
3.512744172763480e-002	8.216997e-001	1.000000e+000
3.512840290231319e-002	8.194931e-001	1.000000e+000
3.512940290231319e-002	8.173580e-001	1.000000e+000
3.513040290231319e-002	8.152407e-001	1.000000e+000
3.513140290231320e-002	8.130051e-001	1.000000e+000
3.513240290231320e-002	8.107952e-001	1.000000e+000
3.513340290231320e-002	8.086675e-001	1.000000e+000
3.513440290231320e-002	8.064991e-001	1.000000e+000
3.513540290231320e-002	8.042862e-001	1.000000e+000
3.513640290231320e-002	8.021203e-001	1.000000e+000
3.513740290231320e-002	7.999759e-001	1.000000e+000
3.513840290231320e-002	7.977939e-001	1.000000e+000
3.513940290231320e-002	7.956110e-001	1.000000e+000
3.514040290231320e-002	7.934594e-001	1.000000e+000
3.514140290231321e-002	7.913023e-001	1.000000e+000
3.514240290231321e-002	7.891273e-001	1.000000e+000
3.514340290231321e-002	7.869653e-001	1.000000e+000
3.514540290231321e-002	7.826564e-001	1.000000e+000
3.514740290231321e-002	7.783437e-001	1.000000e+000
3.514940290231321e-002	7.740408e-001	1.000000e+000
3.515140290231322e-002	7.697464e-001	1.000000e+000
3.515340290231322e-002	7.654550e-001	1.000000e+000
3.519554575945612e-002	6.763606e-001	1.000000e+000
3.523768861659902e-002	5.909309e-001	1.000000e+000
3.527983147374192e-002	5.091660e-001	1.000000e+000
3.532197433088481e-002	4.310659e-001	1.000000e+000
3.536411718802771e-002	3.566306e-001	1.000000e+000
3.540626004517061e-002	2.858601e-001	1.000000e+000
3.544840290231351e-002	2.187543e-001	1.000000e+000
3.547211718802782e-002	1.828970e-001	1.000000e+000
3.549583147374213e-002	1.482966e-001	1.000000e+000
3.551954575945644e-002	1.149530e-001	1.000000e+000
3.554326004517075e-002	8.286633e-002	1.000000e+000
3.556697433088506e-002	5.203646e-002	1.000000e+000
3.559068861659937e-002	2.246345e-002	1.000000e+000
3.561440290231368e-002	-5.852722e-003	1.000000e+000
3.561540290231368e-002	-7.019859e-003	1.000000e+000
3.563511718802798e-002	-2.956201e-002	1.000000e+000
3.565483147374229e-002	-5.127193e-002	1.000000e+000
3.567454575945660e-002	-7.214961e-002	1.000000e+000
3.569426004517090e-002	-9.219506e-002	1.000000e+000
3.571397433088520e-002	-1.114083e-001	1.000000e+000
3.573368861659951e-002	-1.297892e-001	1.000000e+000
3.575340290231382e-002	-1.473380e-001	1.000000e+000
3.578154575945670e-002	-1.709451e-001	1.000000e+000
3.580968861659959e-002	-1.930306e-001	1.000000e+000
3.583783147374248e-002	-2.135945e-001	1.000000e+000
3.586597433088536e-002	-2.326366e-001	1.000000e+000
3.589411718802824e-002	-2.501571e-001	1.000000e+000
3.592226004517113e-002	-2.661559e-001	1.000000e+000
3.595040290231402e-002	-2.806331e-001	1.000000e+000
3.599368861659977e-002	-2.999486e-001	1.000000e+000
3.603697433088553e-002	-3.164950e-001	1.000000e+000
3.608026004517129e-002	-3.302721e-001	1.000000e+000
3.612354575945705e-002	-3.412800e-001	1.000000e+000
3.616683147374281e-002	-3.495187e-001	1.000000e+000
3.621011718802856e-002	-3.549882e-001	1.000000e+000
3.625340290231432e-002	-3.576885e-001	1.000000e+000
3.629611718802864e-002	-3.581970e-001	1.000000e+000
3.633883147374298e-002	-3.570393e-001	1.000000e+000
3.638154575945730e-002	-3.542155e-001	1.000000e+000
3.642426004517163e-002	-3.497255e-001	1.000000e+000
3.646697433088596e-002	-3.435693e-001	1.000000e+000
3.650968861660029e-002	-3.357470e-001	1.000000e+000
3.655240290231462e-002	-3.262585e-001	1.000000e+000
3.656468861660035e-002	-3.233946e-001	1.000000e+000
3.657697433088607e-002	-3.204422e-001	1.000000e+000
3.658926004517180e-002	-3.174012e-001	1.000000e+000
3.660154575945752e-002	-3.142717e-001	1.000000e+000
3.661383147374325e-002	-3.110537e-001	1.000000e+000
3.662611718802897e-002	-3.077471e-001	1.000000e+000
3.663840290231470e-002	-3.043520e-001	1.000000e+000
3.663940290231470e-002	-3.040728e-001	1.000000e+000
3.668726004517189e-002	-2.897775e-001	1.000000e+000
3.673511718802908e-002	-2.748132e-001	1.000000e+000
3.678297433088627e-002	-2.591800e-001	1.000000e+000
3.683083147374347e-002	-2.428779e-001	1.000000e+000
3.687868861660066e-002	-2.259069e-001	1.000000e+000
3.692654575945785e-002	-2.082670e-001	1.000000e+000
3.697440290231504e-002	-1.899581e-001	1.000000e+000
3.702254575945795e-002	-1.714257e-001	1.000000e+000
3.707068861660085e-002	-1.529931e-001	1.000000e+000
3.711883147374376e-002	-1.346603e-001	1.000000e+000
3.716697433088666e-002	-1.164272e-001	1.000000e+000
3.721511718802956e-002	-9.829390e-002	1.000000e+000
3.726326004517247e-002	-8.026038e-002	1.000000e+000
3.731140290231538e-002	-6.232664e-002	1.000000e+000
3.733826004517254e-002	-5.256497e-002	1.000000e+000
3.736511718802971e-002	-4.294655e-002	1.000000e+000
3.739197433088688e-002	-3.347138e-002	1.000000e+000
3.741883147374406e-002	-2.413948e-002	1.000000e+000
3.744568861660123e-002	-1.495082e-002	1.000000e+000
3.747254575945840e-002	-5.905421e-003	1.000000e+000
3.749940290231556e-002	2.996725e-003	1.000000e+000
3.752268861660130e-002	1.056915e-002	1.000000e+000
3.754597433088704e-002	1.800173e-002	1.000000e+000
3.756926004517278e-002	2.529445e-002	1.000000e+000
3.759254575945852e-002	3.244733e-002	1.000000e+000
3.761583147374426e-002	3.946035e-002	1.000000e+000
3.763911718802999e-002	4.633352e-002	1.000000e+000
3.766240290231573e-002	5.306685e-002	1.000000e+000
3.766340290231573e-002	5.335234e-002	1.000000e+000
3.771568861660150e-002	6.791718e-002	1.000000e+000
3.776797433088726e-002	8.167236e-002	1.000000e+000
3.782026004517303e-002	9.461788e-002	1.000000e+000
3.787254575945880e-002	1.067537e-001	1.000000e+000
3.792483147374456e-002	1.180799e-001	1.000000e+000
3.797711718803033e-002	1.285965e-001	1.000000e+000
3.802940290231609e-002	1.383033e-001	1.000000e+000
3.807226004517328e-002	1.456188e-001	1.000000e+000
3.811511718803046e-002	1.524013e-001	1.000000e+000
3.815797433088765e-002	1.586508e-001	1.000000e+000
3.820083147374484e-002	1.643673e-001	1.000000e+000
3.824368861660202e-002	1.695508e-001	1.000000e+000
3.828654575945921e-002	1.742013e-001	1.000000e+000
3.832940290231639e-002	1.783189e-001	1.000000e+000
3.838040290231645e-002	1.825337e-001	1.000000e+000
3.843140290231650e-002	1.860990e-001	1.000000e+000
3.848240290231655e-002	1.890147e-001	1.000000e+000
3.853340290231660e-002	1.912808e-001	1.000000e+000
3.858440290231665e-002	1.928973e-001	1.000000e+000
3.863540290231670e-002	1.938643e-001	1.000000e+000
3.868640290231675e-002	1.941817e-001	1.000000e+000
3.868740290231675e-002	1.941831e-001	1.000000e+000
3.874811718803110e-002	1.937628e-001	1.000000e+000
3.880883147374545e-002	1.926610e-001	1.000000e+000
3.886954575945979e-002	1.908776e-001	1.000000e+000
3.893026004517414e-002	1.884127e-001	1.000000e+000
3.899097433088848e-002	1.852662e-001	1.000000e+000
3.905168861660283e-002	1.814382e-001	1.000000e+000
3.911240290231718e-002	1.769286e-001	1.000000e+000
3.918426004517439e-002	1.708505e-001	1.000000e+000
3.925611718803160e-002	1.642238e-001	1.000000e+000
3.932797433088882e-002	1.570484e-001	1.000000e+000
3.939983147374604e-002	1.493243e-001	1.000000e+000
3.947168861660325e-002	1.410516e-001	1.000000e+000
3.954354575946047e-002	1.322301e-001	1.000000e+000
3.961540290231768e-002	1.228601e-001	1.000000e+000
3.971140290231778e-002	1.100175e-001	1.000000e+000
3.978383147374642e-002	9.987547e-002	1.000000e+000
3.985626004517506e-002	8.964611e-002	1.000000e+000
3.992868861660371e-002	7.932940e-002	1.000000e+000
4.000111718803235e-002	6.892535e-002	1.000000e+000
4.007354575946100e-002	5.843396e-002	1.000000e+000
4.014597433088964e-002	4.785523e-002	1.000000e+000
4.021840290231828e-002	3.718915e-002	1.000000e+000
4.025811718803261e-002	3.142404e-002	1.000000e+000
4.029783147374694e-002	2.570855e-002	1.000000e+000
4.033754575946126e-002	2.004269e-002	1.000000e+000
4.037726004517558e-002	1.442644e-002	1.000000e+000
4.041697433088991e-002	8.859823e-003	1.000000e+000
4.045668861660424e-002	3.342824e-003	1.000000e+000
4.049640290231856e-002	-2.124552e-003	1.000000e+000
4.053040290231860e-002	-6.742210e-003	1.000000e+000
4.056440290231863e-002	-1.129346e-002	1.000000e+000
4.059840290231866e-002	-1.577829e-002	1.000000e+000
4.063240290231870e-002	-2.019672e-002	1.000000e+000
4.066640290231873e-002	-2.454873e-002	1.000000e+000
4.070040290231877e-002	-2.883433e-002	1.000000e+000
4.073440290231880e-002	-3.305352e-002	1.000000e+000
4.073540290231880e-002	-3.317618e-002	1.000000e+000
4.082883147374747e-002	-4.444448e-002	1.000000e+000
4.092226004517613e-002	-5.493131e-002	1.000000e+000
4.101568861660480e-002	-6.463666e-002	1.000000e+000
