time	V(h)	V(vin)
0.000000000000000e+000	5.131318e-005	0.000000e+000
1.006310719994777e-003	5.132327e-005	0.000000e+000
2.030310719994708e-003	5.133134e-005	0.000000e+000
3.054310719994844e-003	5.132079e-005	0.000000e+000
3.510000000000000e-003	5.131369e-005	0.000000e+000
3.510000142857143e-003	1.425484e-001	1.428571e-001
3.510000285714286e-003	2.846343e-001	2.857143e-001
3.510000428571428e-003	4.263090e-001	4.285714e-001
3.510000571428572e-003	5.675726e-001	5.714286e-001
3.510000714285714e-003	7.084251e-001	7.142857e-001
3.510000857142857e-003	8.488664e-001	8.571429e-001
3.510001000000000e-003	9.888965e-001	1.000000e+000
3.510003127418105e-003	9.432619e-001	1.000000e+000
3.510005254836209e-003	8.991681e-001	1.000000e+000
3.510007382254314e-003	8.566152e-001	1.000000e+000
3.510009509672418e-003	8.156032e-001	1.000000e+000
3.510011637090523e-003	7.761321e-001	1.000000e+000
3.510013764508627e-003	7.382019e-001	1.000000e+000
3.510015891926732e-003	7.018126e-001	1.000000e+000
3.510022417023701e-003	5.948444e-001	1.000000e+000
3.510030695031802e-003	4.698272e-001	1.000000e+000
3.510040535599684e-003	3.328204e-001	1.000000e+000
3.510052739969205e-003	1.761794e-001	1.000000e+000
3.510065691592306e-003	2.377519e-002	1.000000e+000
3.510078972057586e-003	-1.173319e-001	1.000000e+000
3.510091791186897e-003	-2.377868e-001	1.000000e+000
3.510103365625057e-003	-3.312927e-001	1.000000e+000
3.510114725922193e-003	-4.058421e-001	1.000000e+000
3.510130820321566e-003	-4.815592e-001	1.000000e+000
3.510153212066493e-003	-5.403138e-001	1.000000e+000
3.510173951884899e-003	-5.509127e-001	1.000000e+000
3.510192893045624e-003	-5.277793e-001	1.000000e+000
3.510203414888771e-003	-5.029951e-001	1.000000e+000
3.510210076046525e-003	-4.826074e-001	1.000000e+000
3.510217232731731e-003	-4.577672e-001	1.000000e+000
3.510224872609110e-003	-4.287696e-001	1.000000e+000
3.510236175550767e-003	-3.826046e-001	1.000000e+000
3.510249478724988e-003	-3.254600e-001	1.000000e+000
3.510266846066262e-003	-2.495938e-001	1.000000e+000
3.510286522267227e-003	-1.667461e-001	1.000000e+000
3.510310669814403e-003	-7.543913e-002	1.000000e+000
3.510338265118655e-003	1.004422e-002	1.000000e+000
3.510369986186564e-003	8.276381e-002	1.000000e+000
3.510402122860268e-003	1.334449e-001	1.000000e+000
3.510429117362606e-003	1.630030e-001	1.000000e+000
3.510453463371082e-003	1.847975e-001	1.000000e+000
3.510481632138717e-003	2.115076e-001	1.000000e+000
3.510512288048025e-003	2.481636e-001	1.000000e+000
3.510546567675141e-003	3.019999e-001	1.000000e+000
3.510583132726460e-003	3.743960e-001	1.000000e+000
3.510624642543969e-003	4.695810e-001	1.000000e+000
3.510644374621791e-003	5.183306e-001	1.000000e+000
3.510660545330827e-003	5.594559e-001	1.000000e+000
3.510677105180818e-003	6.015283e-001	1.000000e+000
3.510692255070946e-003	6.395523e-001	1.000000e+000
3.510708332059017e-003	6.790972e-001	1.000000e+000
3.510724354551677e-003	7.173595e-001	1.000000e+000
3.510747233671327e-003	7.696909e-001	1.000000e+000
3.510781007287167e-003	8.419722e-001	1.000000e+000
3.510848554518848e-003	9.768271e-001	1.000000e+000
3.510881010160234e-003	1.037964e+000	1.000000e+000
3.510905456474380e-003	1.082019e+000	1.000000e+000
3.510932946088800e-003	1.130423e+000	1.000000e+000
3.510960181557702e-003	1.177007e+000	1.000000e+000
3.511006530938891e-003	1.252049e+000	1.000000e+000
3.511071757672077e-003	1.347010e+000	1.000000e+000
3.511147500486605e-003	1.438265e+000	1.000000e+000
3.511226161225603e-003	1.505881e+000	1.000000e+000
3.511334617885616e-003	1.554924e+000	1.000000e+000
3.511461055229949e-003	1.559004e+000	1.000000e+000
3.511574181388159e-003	1.515309e+000	1.000000e+000
3.511688433832825e-003	1.428855e+000	1.000000e+000
3.511802470417817e-003	1.309713e+000	1.000000e+000
3.511949565136351e-003	1.128995e+000	1.000000e+000
3.512067561667315e-003	9.761820e-001	1.000000e+000
3.512189173888718e-003	8.231151e-001	1.000000e+000
3.512299575384607e-003	6.988003e-001	1.000000e+000
3.512415211303526e-003	5.924272e-001	1.000000e+000
3.512536448693397e-003	5.115383e-001	1.000000e+000
3.512649908810142e-003	4.681692e-001	1.000000e+000
3.512770602526731e-003	4.597507e-001	1.000000e+000
3.512929361674533e-003	4.986619e-001	1.000000e+000
3.513111398183020e-003	5.920314e-001	1.000000e+000
3.513250109764006e-003	6.889913e-001	1.000000e+000
3.513359090775516e-003	7.748760e-001	1.000000e+000
3.513469693507831e-003	8.623641e-001	1.000000e+000
3.513580738029855e-003	9.438074e-001	1.000000e+000
3.513701249227196e-003	1.019693e+000	1.000000e+000
3.513814773454909e-003	1.073225e+000	1.000000e+000
3.513975454068202e-003	1.115311e+000	1.000000e+000
3.514163979822929e-003	1.121011e+000	1.000000e+000
3.514335526912726e-003	1.087815e+000	1.000000e+000
3.514496149009441e-003	1.029609e+000	1.000000e+000
3.514626664528407e-003	9.699076e-001	1.000000e+000
3.514736830509767e-003	9.156483e-001	1.000000e+000
3.514848669288423e-003	8.617649e-001	1.000000e+000
3.514961535338331e-003	8.123611e-001	1.000000e+000
3.515074374105440e-003	7.710715e-001	1.000000e+000
3.515193716280905e-003	7.398919e-001	1.000000e+000
3.515363290815929e-003	7.186407e-001	1.000000e+000
3.515566467419971e-003	7.235472e-001	1.000000e+000
3.515761379761955e-003	7.541727e-001	1.000000e+000
3.515900133484652e-003	7.885448e-001	1.000000e+000
3.516008034022942e-003	8.200481e-001	1.000000e+000
3.516117774533723e-003	8.530198e-001	1.000000e+000
3.516228506970042e-003	8.846720e-001	1.000000e+000
3.516341233443153e-003	9.131919e-001	1.000000e+000
3.516454907518618e-003	9.361165e-001	1.000000e+000
3.516593727109877e-003	9.541865e-001	1.000000e+000
3.516772657182902e-003	9.610819e-001	1.000000e+000
3.517006601096843e-003	9.486839e-001	1.000000e+000
3.517169563531111e-003	9.281678e-001	1.000000e+000
3.517288549279302e-003	9.077650e-001	1.000000e+000
3.517396516663399e-003	8.875311e-001	1.000000e+000
3.517516589290090e-003	8.652437e-001	1.000000e+000
3.517629723018618e-003	8.459312e-001	1.000000e+000
3.517744998789746e-003	8.292108e-001	1.000000e+000
3.517859440966705e-003	8.169511e-001	1.000000e+000
3.518023277658590e-003	8.075336e-001	1.000000e+000
3.518216771316696e-003	8.068944e-001	1.000000e+000
3.518386109557045e-003	8.148408e-001	1.000000e+000
3.518522528552359e-003	8.262702e-001	1.000000e+000
3.518639488538033e-003	8.384647e-001	1.000000e+000
3.518749143581148e-003	8.507368e-001	1.000000e+000
3.518864228164601e-003	8.634031e-001	1.000000e+000
3.518980095544781e-003	8.750302e-001	1.000000e+000
3.519096100108150e-003	8.847479e-001	1.000000e+000
3.519217554955980e-003	8.919634e-001	1.000000e+000
3.519385863725059e-003	8.966184e-001	1.000000e+000
3.519589003818501e-003	8.954446e-001	1.000000e+000
3.519744915574572e-003	8.898696e-001	1.000000e+000
3.519875141761946e-003	8.824140e-001	1.000000e+000
3.519991147579732e-003	8.744697e-001	1.000000e+000
3.520111459911838e-003	8.657891e-001	1.000000e+000
3.520249906005051e-003	8.561863e-001	1.000000e+000
3.520385406820070e-003	8.479856e-001	1.000000e+000
3.520525854025083e-003	8.414661e-001	1.000000e+000
3.520671871562212e-003	8.374490e-001	1.000000e+000
3.520860431057870e-003	8.363497e-001	1.000000e+000
3.521064523261198e-003	8.392254e-001	1.000000e+000
3.521213904027547e-003	8.436237e-001	1.000000e+000
3.521348234503814e-003	8.487616e-001	1.000000e+000
3.521497395809085e-003	8.547715e-001	1.000000e+000
3.521656426701551e-003	8.606578e-001	1.000000e+000
3.521816890630366e-003	8.653120e-001	1.000000e+000
3.521984562204527e-003	8.681914e-001	1.000000e+000
3.522168580671236e-003	8.687005e-001	1.000000e+000
3.522397541145698e-003	8.662000e-001	1.000000e+000
3.522577352453093e-003	8.623579e-001	1.000000e+000
3.522744408089857e-003	8.578209e-001	1.000000e+000
3.522938797713378e-003	8.524843e-001	1.000000e+000
3.523120021703876e-003	8.482788e-001	1.000000e+000
3.523318813973760e-003	8.451840e-001	1.000000e+000
3.523521852027152e-003	8.440271e-001	1.000000e+000
3.523784375904558e-003	8.450023e-001	1.000000e+000
3.523991522708834e-003	8.471578e-001	1.000000e+000
3.524188438269931e-003	8.497828e-001	1.000000e+000
3.524416781194611e-003	8.525183e-001	1.000000e+000
3.524633569997476e-003	8.541114e-001	1.000000e+000
3.524876961602272e-003	8.542824e-001	1.000000e+000
3.525152313565076e-003	8.527245e-001	1.000000e+000
3.525370666125085e-003	8.505099e-001	1.000000e+000
3.525594971714265e-003	8.478873e-001	1.000000e+000
3.525866273239271e-003	8.451334e-001	1.000000e+000
3.526122046222923e-003	8.435247e-001	1.000000e+000
3.526424554326510e-003	8.430552e-001	1.000000e+000
3.526744491228326e-003	8.437178e-001	1.000000e+000
3.527030724115601e-003	8.446687e-001	1.000000e+000
3.527356756645042e-003	8.453215e-001	1.000000e+000
3.527660641806164e-003	8.449995e-001	1.000000e+000
3.528041386454362e-003	8.434564e-001	1.000000e+000
3.528339951584354e-003	8.418059e-001	1.000000e+000
3.528673601895447e-003	8.401051e-001	1.000000e+000
3.529051059843396e-003	8.389112e-001	1.000000e+000
3.529458144953095e-003	8.384535e-001	1.000000e+000
3.529800657368526e-003	8.384023e-001	1.000000e+000
3.530195257413877e-003	8.381383e-001	1.000000e+000
3.530645271212745e-003	8.371902e-001	1.000000e+000
3.531168449642886e-003	8.355091e-001	1.000000e+000
3.531651111771219e-003	8.339950e-001	1.000000e+000
3.532202875581535e-003	8.327730e-001	1.000000e+000
3.532778772044826e-003	8.318841e-001	1.000000e+000
3.533356320009502e-003	8.308641e-001	1.000000e+000
3.534011862959935e-003	8.292996e-001	1.000000e+000
3.534826217963570e-003	8.272439e-001	1.000000e+000
3.535562219826260e-003	8.256623e-001	1.000000e+000
3.536441727641375e-003	8.239157e-001	1.000000e+000
3.537441727641375e-003	8.216997e-001	1.000000e+000
3.538402902322197e-003	8.194931e-001	1.000000e+000
3.539402902322198e-003	8.173580e-001	1.000000e+000
3.540402902322198e-003	8.152407e-001	1.000000e+000
3.541402902322198e-003	8.130051e-001	1.000000e+000
3.542402902322198e-003	8.107952e-001	1.000000e+000
3.543402902322198e-003	8.086675e-001	1.000000e+000
3.544402902322198e-003	8.064991e-001	1.000000e+000
3.545402902322198e-003	8.042862e-001	1.000000e+000
3.546402902322198e-003	8.021203e-001	1.000000e+000
3.547402902322199e-003	7.999759e-001	1.000000e+000
3.548402902322199e-003	7.977939e-001	1.000000e+000
3.549402902322199e-003	7.956110e-001	1.000000e+000
3.550402902322199e-003	7.934594e-001	1.000000e+000
3.551402902322199e-003	7.913023e-001	1.000000e+000
3.552402902322199e-003	7.891273e-001	1.000000e+000
3.553402902322199e-003	7.869653e-001	1.000000e+000
3.555402902322200e-003	7.826564e-001	1.000000e+000
3.557402902322200e-003	7.783437e-001	1.000000e+000
3.559402902322200e-003	7.740408e-001	1.000000e+000
3.561402902322200e-003	7.697464e-001	1.000000e+000
3.563402902322201e-003	7.654550e-001	1.000000e+000
3.605545759465063e-003	6.763606e-001	1.000000e+000
3.647688616607926e-003	5.909309e-001	1.000000e+000
3.689831473750789e-003	5.091660e-001	1.000000e+000
3.731974330893652e-003	4.310659e-001	1.000000e+000
3.774117188036514e-003	3.566306e-001	1.000000e+000
3.816260045179377e-003	2.858601e-001	1.000000e+000
3.858402902322240e-003	2.187543e-001	1.000000e+000
3.871402902322242e-003	1.989397e-001	1.000000e+000
3.895117188036530e-003	1.637750e-001	1.000000e+000
3.918831473750819e-003	1.298655e-001	1.000000e+000
3.942545759465108e-003	9.721122e-002	1.000000e+000
3.966260045179397e-003	6.581212e-002	1.000000e+000
3.989974330893686e-003	3.566822e-002	1.000000e+000
4.013688616607974e-003	6.779523e-003	1.000000e+000
4.037402902322264e-003	-2.085397e-002	1.000000e+000
4.055831473750837e-003	-4.146911e-002	1.000000e+000
4.074260045179411e-003	-6.135954e-002	1.000000e+000
4.092688616607985e-003	-8.052524e-002	1.000000e+000
4.111117188036560e-003	-9.896623e-002	1.000000e+000
4.129545759465133e-003	-1.166825e-001	1.000000e+000
4.147974330893707e-003	-1.336741e-001	1.000000e+000
4.166402902322281e-003	-1.499409e-001	1.000000e+000
4.195117188036571e-003	-1.738304e-001	1.000000e+000
4.223831473750860e-003	-1.961423e-001	1.000000e+000
4.252545759465150e-003	-2.168766e-001	1.000000e+000
4.281260045179439e-003	-2.360333e-001	1.000000e+000
4.309974330893729e-003	-2.536125e-001	1.000000e+000
4.338688616608018e-003	-2.696141e-001	1.000000e+000
4.367402902322307e-003	-2.840382e-001	1.000000e+000
4.410974330893742e-003	-3.029420e-001	1.000000e+000
4.454545759465176e-003	-3.190686e-001	1.000000e+000
4.498117188036611e-003	-3.324182e-001	1.000000e+000
4.541688616608045e-003	-3.429906e-001	1.000000e+000
4.585260045179479e-003	-3.507860e-001	1.000000e+000
4.628831473750913e-003	-3.558042e-001	1.000000e+000
4.672402902322348e-003	-3.580453e-001	1.000000e+000
4.704117188036638e-003	-3.584094e-001	1.000000e+000
4.735831473750928e-003	-3.578022e-001	1.000000e+000
4.767545759465218e-003	-3.562239e-001	1.000000e+000
4.799260045179507e-003	-3.536744e-001	1.000000e+000
4.830974330893798e-003	-3.501536e-001	1.000000e+000
4.862688616608088e-003	-3.456617e-001	1.000000e+000
4.894402902322377e-003	-3.401986e-001	1.000000e+000
4.895402902322378e-003	-3.400180e-001	1.000000e+000
4.934831473750954e-003	-3.320676e-001	1.000000e+000
4.974260045179531e-003	-3.232689e-001	1.000000e+000
5.013688616608107e-003	-3.136221e-001	1.000000e+000
5.053117188036685e-003	-3.031270e-001	1.000000e+000
5.092545759465261e-003	-2.917838e-001	1.000000e+000
5.131974330893838e-003	-2.795924e-001	1.000000e+000
5.171402902322414e-003	-2.665527e-001	1.000000e+000
5.223117188036707e-003	-2.485737e-001	1.000000e+000
5.274831473750999e-003	-2.302273e-001	1.000000e+000
5.326545759465292e-003	-2.115138e-001	1.000000e+000
5.378260045179584e-003	-1.924330e-001	1.000000e+000
5.429974330893877e-003	-1.729850e-001	1.000000e+000
5.481688616608170e-003	-1.531697e-001	1.000000e+000
5.533402902322462e-003	-1.329872e-001	1.000000e+000
5.575688616608182e-003	-1.167127e-001	1.000000e+000
5.617974330893902e-003	-1.006700e-001	1.000000e+000
5.660260045179622e-003	-8.485905e-002	1.000000e+000
5.702545759465342e-003	-6.927994e-002	1.000000e+000
5.744831473751062e-003	-5.393264e-002	1.000000e+000
5.787117188036782e-003	-3.881716e-002	1.000000e+000
5.829402902322502e-003	-2.393348e-002	1.000000e+000
5.842117188036789e-003	-1.955862e-002	1.000000e+000
5.854831473751076e-003	-1.521970e-002	1.000000e+000
5.867545759465364e-003	-1.091674e-002	1.000000e+000
5.880260045179651e-003	-6.649729e-003	1.000000e+000
5.892974330893939e-003	-2.418668e-003	1.000000e+000
5.905688616608226e-003	1.776443e-003	1.000000e+000
5.918402902322513e-003	5.935602e-003	1.000000e+000
5.919402902322513e-003	6.260961e-003	1.000000e+000
5.971688616608234e-003	2.299864e-002	1.000000e+000
6.023974330893956e-003	3.897353e-002	1.000000e+000
6.076260045179677e-003	5.418564e-002	1.000000e+000
6.128545759465399e-003	6.863497e-002	1.000000e+000
6.180831473751119e-003	8.232151e-002	1.000000e+000
6.233117188036841e-003	9.524526e-002	1.000000e+000
6.285402902322562e-003	1.074062e-001	1.000000e+000
6.331974330893997e-003	1.174959e-001	1.000000e+000
6.378545759465432e-003	1.269379e-001	1.000000e+000
6.425117188036867e-003	1.357324e-001	1.000000e+000
6.471688616608301e-003	1.438791e-001	1.000000e+000
6.518260045179736e-003	1.513783e-001	1.000000e+000
6.564831473751170e-003	1.582298e-001	1.000000e+000
6.611402902322605e-003	1.644337e-001	1.000000e+000
6.658688616608325e-003	1.700698e-001	1.000000e+000
6.705974330894047e-003	1.751029e-001	1.000000e+000
6.753260045179767e-003	1.795330e-001	1.000000e+000
6.800545759465488e-003	1.833602e-001	1.000000e+000
6.847831473751208e-003	1.865844e-001	1.000000e+000
6.895117188036929e-003	1.892056e-001	1.000000e+000
6.942402902322649e-003	1.912239e-001	1.000000e+000
6.943402902322649e-003	1.912613e-001	1.000000e+000
7.020001000000000e-003	1.934081e-001	1.000000e+000
7.020001106051979e-003	8.755037e-002	8.939480e-001
7.020001212103960e-003	-1.806847e-002	7.878960e-001
7.020001318155940e-003	-1.234484e-001	6.818440e-001
7.020001424207919e-003	-2.285893e-001	5.757920e-001
7.020001530259899e-003	-3.334913e-001	4.697401e-001
7.020001636311880e-003	-4.381544e-001	3.636881e-001
7.020001742363859e-003	-5.425786e-001	2.576361e-001
7.020002000000000e-003	-7.954350e-001	0.000000e+000
7.020004156586313e-003	-7.491899e-001	0.000000e+000
7.020006313172626e-003	-7.045152e-001	0.000000e+000
7.020008469758940e-003	-6.614109e-001	0.000000e+000
7.020010626345254e-003	-6.198769e-001	0.000000e+000
7.020012782931567e-003	-5.799134e-001	0.000000e+000
7.020014939517880e-003	-5.415202e-001	0.000000e+000
7.020017096104193e-003	-5.046974e-001	0.000000e+000
7.020023601783046e-003	-3.985266e-001	0.000000e+000
7.020032450831081e-003	-2.656424e-001	0.000000e+000
7.020043307529547e-003	-1.158941e-001	0.000000e+000
7.020056595984979e-003	5.249349e-002	0.000000e+000
7.020069123044713e-003	1.973810e-001	0.000000e+000
7.020082643852506e-003	3.379957e-001	0.000000e+000
7.020095001714036e-003	4.512721e-001	0.000000e+000
7.020106308977463e-003	5.398088e-001	0.000000e+000
7.020117899800700e-003	6.124442e-001	0.000000e+000
7.020135397836810e-003	6.891290e-001	0.000000e+000
7.020157149213122e-003	7.421312e-001	0.000000e+000
7.020172089755013e-003	7.516401e-001	0.000000e+000
7.020182820770487e-003	7.429785e-001	0.000000e+000
7.020193313639499e-003	7.243014e-001	0.000000e+000
7.020202719970789e-003	7.011817e-001	0.000000e+000
7.020209089944403e-003	6.821703e-001	0.000000e+000
7.020216511423072e-003	6.570372e-001	0.000000e+000
7.020223759618761e-003	6.300846e-001	0.000000e+000
7.020234492997642e-003	5.869201e-001	0.000000e+000
7.020247110453106e-003	5.332440e-001	0.000000e+000
7.020263830892606e-003	4.602500e-001	0.000000e+000
7.020282771669185e-003	3.795193e-001	0.000000e+000
7.020306142719616e-003	2.884730e-001	0.000000e+000
7.020332688758943e-003	2.021329e-001	0.000000e+000
7.020365050284814e-003	1.225014e-001	0.000000e+000
7.020395838227135e-003	7.032140e-002	0.000000e+000
7.020430606931364e-003	3.043817e-002	0.000000e+000
7.020457055673004e-003	6.143949e-003	0.000000e+000
7.020485104140907e-003	-2.080576e-002	0.000000e+000
7.020516091350538e-003	-5.861455e-002	0.000000e+000
7.020550340764518e-003	-1.134453e-001	0.000000e+000
7.020587125984670e-003	-1.863021e-001	0.000000e+000
7.020613390483596e-003	-2.458971e-001	0.000000e+000
7.020630837220886e-003	-2.885370e-001	0.000000e+000
7.020647031426363e-003	-3.293542e-001	0.000000e+000
7.020662796112022e-003	-3.694555e-001	0.000000e+000
7.020677259252839e-003	-4.061509e-001	0.000000e+000
7.020692250670116e-003	-4.437290e-001	0.000000e+000
7.020708931193615e-003	-4.847182e-001	0.000000e+000
7.020725297409144e-003	-5.237641e-001	0.000000e+000
7.020748076717583e-003	-5.758128e-001	0.000000e+000
7.020782045050453e-003	-6.489394e-001	0.000000e+000
7.020831200690820e-003	-7.481447e-001	0.000000e+000
7.020868084883119e-003	-8.185489e-001	0.000000e+000
7.020894291874409e-003	-8.665639e-001	0.000000e+000
7.020920619698115e-003	-9.135740e-001	0.000000e+000
7.020947444622149e-003	-9.603223e-001	0.000000e+000
7.020982093185539e-003	-1.017961e+000	0.000000e+000
7.021051390312321e-003	-1.123241e+000	0.000000e+000
7.021128706670784e-003	-1.222757e+000	0.000000e+000
7.021207217801317e-003	-1.297864e+000	0.000000e+000
7.021304584202231e-003	-1.350799e+000	0.000000e+000
7.021444740402828e-003	-1.366580e+000	0.000000e+000
7.021560795351044e-003	-1.329955e+000	0.000000e+000
7.021672933976806e-003	-1.250587e+000	0.000000e+000
7.021784763962833e-003	-1.137884e+000	0.000000e+000
7.021922812938584e-003	-9.712473e-001	0.000000e+000
7.022054395138788e-003	-8.012490e-001	0.000000e+000
7.022173193249065e-003	-6.503198e-001	0.000000e+000
7.022282818753042e-003	-5.241867e-001	0.000000e+000
7.022399076842136e-003	-4.126949e-001	0.000000e+000
